!SWISSto12 MCK measurement data
!name=Acrylic_19052022_1
!thickness[mm]=2.000
# GHz S RI R 50.0 
!freq ReS11 ImS11 ReS21 ImS21 ReS12 ImS12 ReS22 ImS22
75.0 -0.499184431762 0.093000705275 0.413737687582 0.786272798873 0.0 0.0 0.0 0.0
75.015625 -0.498972514223 0.09350524242 0.414569589824 0.785932599084 0.0 0.0 0.0 0.0
75.03125 -0.498754618416 0.0940199420601 0.415401026833 0.785591650004 0.0 0.0 0.0 0.0
75.046875 -0.49853018666 0.0945442744369 0.416231516923 0.785250055609 0.0 0.0 0.0 0.0
75.0625 -0.498296481201 0.0950797837319 0.417061250792 0.784907799545 0.0 0.0 0.0 0.0
75.078125 -0.498055567603 0.0956276159839 0.417890168815 0.784565150058 0.0 0.0 0.0 0.0
75.09375 -0.497807812866 0.0961876955375 0.418718474958 0.784221862111 0.0 0.0 0.0 0.0
75.109375 -0.497553533361 0.0967594740364 0.419546122111 0.78387810045 0.0 0.0 0.0 0.0
75.125 -0.49729225874 0.0973429550842 0.420372879179 0.783533685955 0.0 0.0 0.0 0.0
75.140625 -0.497024026135 0.0979380073196 0.421198873136 0.783188607661 0.0 0.0 0.0 0.0
75.15625 -0.496748755107 0.0985445187345 0.422024474202 0.78284305575 0.0 0.0 0.0 0.0
75.171875 -0.496466374903 0.0991623267701 0.422849271107 0.782496767632 0.0 0.0 0.0 0.0
75.1875 -0.496176681615 0.0997915075999 0.423673193919 0.782149865967 0.0 0.0 0.0 0.0
75.203125 -0.495879600457 0.100431912687 0.424496544497 0.781802661122 0.0 0.0 0.0 0.0
75.21875 -0.495574939433 0.101083411613 0.425319344347 0.781454573046 0.0 0.0 0.0 0.0
75.234375 -0.495262544104 0.101745965952 0.426141524767 0.781105973541 0.0 0.0 0.0 0.0
75.25 -0.494942476976 0.102419580696 0.426962831001 0.780756891928 0.0 0.0 0.0 0.0
75.265625 -0.494614326254 0.103104084467 0.427783723987 0.780406938396 0.0 0.0 0.0 0.0
75.28125 -0.494278079273 0.103799429577 0.428603857849 0.780056470316 0.0 0.0 0.0 0.0
75.296875 -0.49393363104 0.104505599668 0.429423429577 0.779705478575 0.0 0.0 0.0 0.0
75.3125 -0.493580968692 0.105222407792 0.430242213917 0.779354046822 0.0 0.0 0.0 0.0
75.328125 -0.493219700101 0.105949851131 0.431060623238 0.77900169747 0.0 0.0 0.0 0.0
75.34375 -0.49284985613 0.106687800524 0.431878413592 0.778648970938 0.0 0.0 0.0 0.0
75.359375 -0.492471314522 0.107436178866 0.432695512522 0.778295615472 0.0 0.0 0.0 0.0
75.375 -0.492083981705 0.108194905322 0.433512276303 0.777941419859 0.0 0.0 0.0 0.0
75.390625 -0.491687675735 0.108963912537 0.434328228085 0.777586748354 0.0 0.0 0.0 0.0
75.40625 -0.491282189899 0.109742988332 0.435143943141 0.777231294844 0.0 0.0 0.0 0.0
75.421875 -0.490867617286 0.110532226303 0.43595900914 0.776875416623 0.0 0.0 0.0 0.0
75.4375 -0.490443499635 0.111331397424 0.436773437591 0.776518772107 0.0 0.0 0.0 0.0
75.453125 -0.490010138386 0.112140296593 0.437587401919 0.776161671512 0.0 0.0 0.0 0.0
75.46875 -0.489566961622 0.112958947948 0.438400931982 0.775803565163 0.0 0.0 0.0 0.0
75.484375 -0.489114228989 0.113787203563 0.439213794194 0.775445006893 0.0 0.0 0.0 0.0
75.5 -0.48865164608 0.114624743964 0.440026289308 0.77508580644 0.0 0.0 0.0 0.0
75.515625 -0.48817907923 0.115471653729 0.440838319919 0.77472603366 0.0 0.0 0.0 0.0
75.53125 -0.487696525004 0.11632758336 0.441649843513 0.77436549525 0.0 0.0 0.0 0.0
75.546875 -0.487203720503 0.117192446292 0.442460841335 0.774004399745 0.0 0.0 0.0 0.0
75.5625 -0.486700709838 0.11806605599 0.44327151304 0.773642499726 0.0 0.0 0.0 0.0
75.578125 -0.48618734203 0.118948100672 0.444081694262 0.77327986832 0.0 0.0 0.0 0.0
75.59375 -0.485663306952 0.119838347437 0.444891649566 0.772916848039 0.0 0.0 0.0 0.0
75.609375 -0.485128136099 0.120736409151 0.445701077215 0.772553034005 0.0 0.0 0.0 0.0
75.625 -0.484581177202 0.121642190788 0.446510181019 0.772188662386 0.0 0.0 0.0 0.0
75.640625 -0.484021749771 0.122556826656 0.44731904223 0.771823636947 0.0 0.0 0.0 0.0
75.65625 -0.48345039824 0.123480487631 0.448127597211 0.771457612284 0.0 0.0 0.0 0.0
75.671875 -0.482867795131 0.124413055625 0.448935811786 0.771091004495 0.0 0.0 0.0 0.0
75.6875 -0.482273796181 0.125354291163 0.449743698958 0.770723600762 0.0 0.0 0.0 0.0
75.703125 -0.481668398136 0.126303852537 0.450551309269 0.770355371427 0.0 0.0 0.0 0.0
75.71875 -0.481051635622 0.127261690016 0.451358523878 0.769986350358 0.0 0.0 0.0 0.0
75.734375 -0.480423521301 0.128227516178 0.452165447527 0.76961671766 0.0 0.0 0.0 0.0
75.75 -0.479783780874 0.129201171278 0.452971920014 0.769246319018 0.0 0.0 0.0 0.0
75.765625 -0.479132702237 0.130182507826 0.453778047502 0.768874985367 0.0 0.0 0.0 0.0
75.78125 -0.478469986498 0.131171459238 0.454583979166 0.768503204749 0.0 0.0 0.0 0.0
75.796875 -0.477795615743 0.132167758873 0.455389702287 0.768130372299 0.0 0.0 0.0 0.0
75.8125 -0.477109663052 0.133171224473 0.456195058956 0.767756923046 0.0 0.0 0.0 0.0
75.828125 -0.476411898229 0.134181750941 0.457000152038 0.767382681954 0.0 0.0 0.0 0.0
75.84375 -0.475702439193 0.135199200542 0.457805049927 0.767007764959 0.0 0.0 0.0 0.0
75.859375 -0.474981100185 0.136223314629 0.458609781966 0.766631989965 0.0 0.0 0.0 0.0
75.875 -0.474247923883 0.137254026285 0.459414215709 0.766255600088 0.0 0.0 0.0 0.0
75.890625 -0.473502890178 0.138291095876 0.46021852064 0.765878300513 0.0 0.0 0.0 0.0
75.90625 -0.472745846667 0.139334354978 0.461022660579 0.765500147898 0.0 0.0 0.0 0.0
75.921875 -0.471976760076 0.140383616827 0.461826462814 0.765121202807 0.0 0.0 0.0 0.0
75.9375 -0.471195810039 0.141438740289 0.462630269948 0.764741573291 0.0 0.0 0.0 0.0
75.953125 -0.470402790969 0.142499554197 0.463433808143 0.764361151958 0.0 0.0 0.0 0.0
75.96875 -0.469597748304 0.14356580717 0.464237432837 0.763979837386 0.0 0.0 0.0 0.0
75.984375 -0.468780685839 0.144637388552 0.465040666411 0.763597875848 0.0 0.0 0.0 0.0
76.0 -0.467951466768 0.145714006404 0.465843937091 0.763214941616 0.0 0.0 0.0 0.0
76.015625 -0.467110272186 0.146795620135 0.466647053368 0.762831179081 0.0 0.0 0.0 0.0
76.03125 -0.466256931734 0.147881873925 0.467450030483 0.76244661419 0.0 0.0 0.0 0.0
76.046875 -0.465391464877 0.148972709134 0.468253074562 0.762061242063 0.0 0.0 0.0 0.0
76.0625 -0.464513838382 0.150067793282 0.469055807492 0.761674789643 0.0 0.0 0.0 0.0
76.078125 -0.463624241358 0.151166984789 0.469858713646 0.761287931078 0.0 0.0 0.0 0.0
76.09375 -0.462722365142 0.152270030975 0.470661474017 0.760899808956 0.0 0.0 0.0 0.0
76.109375 -0.461808361198 0.153376656718 0.471464078257 0.760511201037 0.0 0.0 0.0 0.0
76.125 -0.460882240389 0.154486677423 0.472266826509 0.760121573846 0.0 0.0 0.0 0.0
76.140625 -0.4599437929 0.155599816094 0.473069537897 0.759731088691 0.0 0.0 0.0 0.0
76.15625 -0.458992801907 0.156715824045 0.473872301465 0.759339551329 0.0 0.0 0.0 0.0
76.171875 -0.458029000134 0.157834687472 0.474674991874 0.758947212257 0.0 0.0 0.0 0.0
76.1875 -0.457052665119 0.158956765185 0.475477704622 0.758554112227 0.0 0.0 0.0 0.0
76.203125 -0.456063826102 0.160081904867 0.476280427556 0.758160119939 0.0 0.0 0.0 0.0
76.21875 -0.455063009412 0.161210061563 0.477083146065 0.757764989122 0.0 0.0 0.0 0.0
76.234375 -0.454050363614 0.162340907865 0.477885988424 0.757369036661 0.0 0.0 0.0 0.0
76.25 -0.453025987611 0.163474184946 0.47868883457 0.756972184276 0.0 0.0 0.0 0.0
76.265625 -0.451989910651 0.164609677383 0.479491669378 0.756574520265 0.0 0.0 0.0 0.0
76.28125 -0.450942306758 0.165747239643 0.480294706721 0.75617593681 0.0 0.0 0.0 0.0
76.296875 -0.449883292748 0.166886655458 0.481097820202 0.755776235492 0.0 0.0 0.0 0.0
76.3125 -0.448812790886 0.168027858061 0.481900889061 0.75537578305 0.0 0.0 0.0 0.0
76.328125 -0.447730849423 0.169170298379 0.482704202282 0.754974145681 0.0 0.0 0.0 0.0
76.34375 -0.44663757298 0.170313959848 0.483507739207 0.75457184525 0.0 0.0 0.0 0.0
76.359375 -0.445532970698 0.17145841517 0.484311174329 0.754168263375 0.0 0.0 0.0 0.0
76.375 -0.444417430867 0.172603502968 0.485114728072 0.753763965829 0.0 0.0 0.0 0.0
76.390625 -0.443290941409 0.173749011912 0.485918530689 0.753358713602 0.0 0.0 0.0 0.0
76.40625 -0.442153401117 0.174894677506 0.486722474273 0.752952339845 0.0 0.0 0.0 0.0
76.421875 -0.441005249048 0.176040295537 0.487526507317 0.752545095621 0.0 0.0 0.0 0.0
76.4375 -0.43984658106 0.177185682437 0.4883307191 0.752136899412 0.0 0.0 0.0 0.0
76.453125 -0.438677362001 0.178330636121 0.489135118354 0.751727655446 0.0 0.0 0.0 0.0
76.46875 -0.437497840623 0.179474746452 0.489939640697 0.751317484311 0.0 0.0 0.0 0.0
76.484375 -0.43630812472 0.180617956362 0.490744310535 0.750906096196 0.0 0.0 0.0 0.0
76.5 -0.43510828672 0.181760024771 0.49154929594 0.750493967258 0.0 0.0 0.0 0.0
76.515625 -0.433898658289 0.182900701206 0.492354509875 0.750080637187 0.0 0.0 0.0 0.0
76.53125 -0.432679244061 0.184039719569 0.493159726405 0.749666524619 0.0 0.0 0.0 0.0
76.546875 -0.43145021748 0.185176885617 0.493965380354 0.749251312261 0.0 0.0 0.0 0.0
76.5625 -0.430211849971 0.186311913475 0.494771124914 0.748834908763 0.0 0.0 0.0 0.0
76.578125 -0.42896432394 0.187444600999 0.495577347028 0.748417683542 0.0 0.0 0.0 0.0
76.59375 -0.427707581929 0.18857465949 0.496383516547 0.747999268708 0.0 0.0 0.0 0.0
76.609375 -0.426442063777 0.189701951877 0.497190085234 0.74757980584 0.0 0.0 0.0 0.0
76.625 -0.425167841064 0.19082616511 0.49799679477 0.747159338369 0.0 0.0 0.0 0.0
76.640625 -0.423885164464 0.19194703372 0.498803784475 0.746737860122 0.0 0.0 0.0 0.0
76.65625 -0.422594182138 0.193064401816 0.499611214228 0.746315180043 0.0 0.0 0.0 0.0
76.671875 -0.421295055091 0.19417796812 0.500418815282 0.745891541884 0.0 0.0 0.0 0.0
76.6875 -0.41998810853 0.19528750966 0.501226660312 0.745466946753 0.0 0.0 0.0 0.0
76.703125 -0.418673359915 0.196392748779 0.502034786882 0.74504112922 0.0 0.0 0.0 0.0
76.71875 -0.417351151123 0.197493441925 0.502843262207 0.744614189723 0.0 0.0 0.0 0.0
76.734375 -0.416021609231 0.198589333009 0.503652044477 0.744186280213 0.0 0.0 0.0 0.0
76.75 -0.414684910377 0.199680071959 0.50446098728 0.74375718457 0.0 0.0 0.0 0.0
76.765625 -0.413341107227 0.200765574092 0.50527029189 0.743326987154 0.0 0.0 0.0 0.0
76.78125 -0.411990270891 0.201845661933 0.50608001595 0.742895772653 0.0 0.0 0.0 0.0
76.796875 -0.410632783219 0.202920329076 0.506890001074 0.742463414745 0.0 0.0 0.0 0.0
76.8125 -0.409268862142 0.203989391157 0.507700277061 0.74202995757 0.0 0.0 0.0 0.0
76.828125 -0.407898800636 0.205052687542 0.508510801153 0.741595233186 0.0 0.0 0.0 0.0
76.84375 -0.406522658491 0.206110079789 0.509321767552 0.741159419597 0.0 0.0 0.0 0.0
76.859375 -0.405140997672 0.207161329322 0.510133121806 0.740722648575 0.0 0.0 0.0 0.0
76.875 -0.403753929438 0.208205991106 0.510944694883 0.740284569107 0.0 0.0 0.0 0.0
76.890625 -0.402361883271 0.209243939893 0.511756681374 0.739845463872 0.0 0.0 0.0 0.0
76.90625 -0.40096506145 0.210275006129 0.512569122296 0.73940497097 0.0 0.0 0.0 0.0
76.921875 -0.399563926368 0.211298905349 0.513381628995 0.738963476767 0.0 0.0 0.0 0.0
76.9375 -0.39815869707 0.212315503016 0.514194812196 0.738520915337 0.0 0.0 0.0 0.0
76.953125 -0.39674956184 0.213324412877 0.51500810696 0.738076999313 0.0 0.0 0.0 0.0
76.96875 -0.395337090431 0.214325645304 0.515821867671 0.737632028179 0.0 0.0 0.0 0.0
76.984375 -0.393921365566 0.215318868728 0.516635894595 0.737185716311 0.0 0.0 0.0 0.0
77.0 -0.392502718385 0.216303872138 0.517450299879 0.736738328903 0.0 0.0 0.0 0.0
77.015625 -0.391081559288 0.217280561836 0.518264937194 0.736289761959 0.0 0.0 0.0 0.0
77.03125 -0.389658055613 0.218248629401 0.519080004415 0.735839880621 0.0 0.0 0.0 0.0
77.046875 -0.388232526649 0.219207905517 0.519895515782 0.735388913274 0.0 0.0 0.0 0.0
77.0625 -0.386805442977 0.220158158509 0.520711169562 0.734936744761 0.0 0.0 0.0 0.0
77.078125 -0.385377026087 0.221099157802 0.521527460211 0.734483347339 0.0 0.0 0.0 0.0
77.09375 -0.383947524589 0.222030828125 0.522343898319 0.734028860269 0.0 0.0 0.0 0.0
77.109375 -0.382517401966 0.222952728515 0.523160753994 0.733573042962 0.0 0.0 0.0 0.0
77.125 -0.381086810116 0.223864771209 0.523977864378 0.733115977634 0.0 0.0 0.0 0.0
77.140625 -0.379656189507 0.224766717051 0.524795370035 0.73265775827 0.0 0.0 0.0 0.0
77.15625 -0.378225851253 0.225658410384 0.525613412105 0.732198272663 0.0 0.0 0.0 0.0
77.171875 -0.376796163458 0.226539512616 0.526431606161 0.73173760289 0.0 0.0 0.0 0.0
77.1875 -0.375367437318 0.2274099296 0.52725015086 0.731275717451 0.0 0.0 0.0 0.0
77.203125 -0.373939988077 0.228269471982 0.528069114896 0.730812609181 0.0 0.0 0.0 0.0
77.21875 -0.372514197614 0.229117756914 0.528888443569 0.730348100218 0.0 0.0 0.0 0.0
77.234375 -0.371090353506 0.229954793371 0.529708140154 0.72988260489 0.0 0.0 0.0 0.0
77.25 -0.369668883261 0.230780186233 0.530528140609 0.729415830232 0.0 0.0 0.0 0.0
77.265625 -0.368250016606 0.231593867276 0.53134854851 0.728947613097 0.0 0.0 0.0 0.0
77.28125 -0.36683414708 0.232395601611 0.532169204558 0.728478449076 0.0 0.0 0.0 0.0
77.296875 -0.365421616566 0.2331851103 0.532990276173 0.728007752824 0.0 0.0 0.0 0.0
77.3125 -0.364012814043 0.233962269576 0.533811656064 0.727536090204 0.0 0.0 0.0 0.0
77.328125 -0.362608039624 0.23472683567 0.534633387227 0.727063011903 0.0 0.0 0.0 0.0
77.34375 -0.36120755941 0.235478581202 0.535455481437 0.726588636121 0.0 0.0 0.0 0.0
77.359375 -0.359811917536 0.23621746502 0.536277976227 0.726113216421 0.0 0.0 0.0 0.0
77.375 -0.358421135686 0.23694321224 0.537100750433 0.725636184257 0.0 0.0 0.0 0.0
77.390625 -0.35703589513 0.237655711923 0.537923865789 0.725158230164 0.0 0.0 0.0 0.0
77.40625 -0.355656457952 0.238354892015 0.538747418965 0.724678777792 0.0 0.0 0.0 0.0
77.421875 -0.354283228946 0.239040471536 0.539571151367 0.724198185401 0.0 0.0 0.0 0.0
77.4375 -0.352916540962 0.239712366873 0.540395213441 0.723716252844 0.0 0.0 0.0 0.0
77.453125 -0.351556851127 0.240370481203 0.54121967752 0.723233177781 0.0 0.0 0.0 0.0
77.46875 -0.350204650316 0.241014507329 0.54204446383 0.72274875318 0.0 0.0 0.0 0.0
77.484375 -0.348860092152 0.241644633397 0.54286960786 0.722263127038 0.0 0.0 0.0 0.0
77.5 -0.347523712805 0.242260250434 0.543694988598 0.721776138652 0.0 0.0 0.0 0.0
77.515625 -0.346195773343 0.242861561305 0.544520670575 0.721287774632 0.0 0.0 0.0 0.0
77.53125 -0.34487650078 0.243448129363 0.545346779501 0.720798301661 0.0 0.0 0.0 0.0
77.546875 -0.343566421846 0.244019905318 0.546173144648 0.720307394279 0.0 0.0 0.0 0.0
77.5625 -0.342266082877 0.244576655153 0.54699985834 0.71981527462 0.0 0.0 0.0 0.0
77.578125 -0.340975671624 0.245118135925 0.547826846522 0.719321746044 0.0 0.0 0.0 0.0
77.59375 -0.339695643037 0.245644368683 0.548654086474 0.718826978219 0.0 0.0 0.0 0.0
77.609375 -0.338426367836 0.246155216331 0.549481557575 0.718330944579 0.0 0.0 0.0 0.0
77.625 -0.337168207344 0.246650401931 0.550309334671 0.717833545347 0.0 0.0 0.0 0.0
77.640625 -0.335921598548 0.247130053432 0.551137323877 0.717334856689 0.0 0.0 0.0 0.0
77.65625 -0.334686894287 0.247593794371 0.551965761129 0.716834889508 0.0 0.0 0.0 0.0
77.671875 -0.333464380572 0.248041651064 0.55279427879 0.716333758824 0.0 0.0 0.0 0.0
77.6875 -0.332254582762 0.248473556334 0.553623184034 0.715831271583 0.0 0.0 0.0 0.0
77.703125 -0.331057851475 0.248889146109 0.554452251998 0.715327433022 0.0 0.0 0.0 0.0
77.71875 -0.329874554911 0.249288453154 0.55528162339 0.714822327095 0.0 0.0 0.0 0.0
77.734375 -0.328705035736 0.249671391781 0.556111191584 0.714315915167 0.0 0.0 0.0 0.0
77.75 -0.327549771865 0.250037810897 0.556940893443 0.713808117054 0.0 0.0 0.0 0.0
77.765625 -0.3264090418 0.250387412239 0.557770910426 0.713299166065 0.0 0.0 0.0 0.0
77.78125 -0.325283313406 0.250720356957 0.558601227207 0.712788944603 0.0 0.0 0.0 0.0
77.796875 -0.324172947284 0.2510363144 0.55943170127 0.712277173776 0.0 0.0 0.0 0.0
77.8125 -0.323078238919 0.251335114199 0.560262385088 0.71176440951 0.0 0.0 0.0 0.0
77.828125 -0.321999698288 0.251616894565 0.561093405105 0.71125012986 0.0 0.0 0.0 0.0
77.84375 -0.320937544591 0.251881433125 0.561924453422 0.710734724431 0.0 0.0 0.0 0.0
77.859375 -0.319892288794 0.252128462879 0.56275569164 0.710217912045 0.0 0.0 0.0 0.0
77.875 -0.318864256165 0.252358024217 0.56358715142 0.709699830636 0.0 0.0 0.0 0.0
77.890625 -0.317853799416 0.252569975064 0.564418851023 0.70918040664 0.0 0.0 0.0 0.0
77.90625 -0.316861218292 0.252764237825 0.565250725674 0.708659656228 0.0 0.0 0.0 0.0
77.921875 -0.315886980712 0.252940699367 0.566082679036 0.708137652978 0.0 0.0 0.0 0.0
77.9375 -0.314931466673 0.253099352841 0.566914979412 0.707614346417 0.0 0.0 0.0 0.0
77.953125 -0.313994948053 0.253240038256 0.567747288541 0.707089701003 0.0 0.0 0.0 0.0
77.96875 -0.313077849119 0.253362720718 0.56857975645 0.706563904549 0.0 0.0 0.0 0.0
77.984375 -0.312180436216 0.253467309423 0.569412350754 0.706036628441 0.0 0.0 0.0 0.0
78.0 -0.311303041514 0.253553837578 0.570245100176 0.705508101814 0.0 0.0 0.0 0.0
78.015625 -0.310445957795 0.25362206687 0.571077873686 0.70497825936 0.0 0.0 0.0 0.0
78.03125 -0.309609578759 0.253672291268 0.571910978689 0.704447193373 0.0 0.0 0.0 0.0
78.046875 -0.308794138461 0.253704158868 0.572744076726 0.703914870518 0.0 0.0 0.0 0.0
78.0625 -0.308000089176 0.253717808387 0.573577239902 0.703381189061 0.0 0.0 0.0 0.0
78.078125 -0.307227590774 0.25371307054 0.574410493126 0.70284608514 0.0 0.0 0.0 0.0
78.09375 -0.306477103262 0.253690127446 0.575243793042 0.702309888658 0.0 0.0 0.0 0.0
78.109375 -0.305748829385 0.253648777748 0.576077292173 0.701772214031 0.0 0.0 0.0 0.0
78.125 -0.305043169039 0.253589224441 0.576910700781 0.701233376254 0.0 0.0 0.0 0.0
78.140625 -0.304360485189 0.253511194219 0.577744374357 0.700693427281 0.0 0.0 0.0 0.0
78.15625 -0.303700950682 0.253414770926 0.578577897663 0.700151769174 0.0 0.0 0.0 0.0
78.171875 -0.303065053406 0.25329985476 0.57941164559 0.699609237006 0.0 0.0 0.0 0.0
78.1875 -0.302452923533 0.253166561618 0.580245205007 0.699065142403 0.0 0.0 0.0 0.0
78.203125 -0.301864939449 0.253014768378 0.581078955782 0.698519944747 0.0 0.0 0.0 0.0
78.21875 -0.301301357008 0.252844488586 0.581912614561 0.69797339833 0.0 0.0 0.0 0.0
78.234375 -0.300762527328 0.252655746119 0.582746402428 0.697425486233 0.0 0.0 0.0 0.0
78.25 -0.300248581309 0.252448481002 0.583579892317 0.696876359117 0.0 0.0 0.0 0.0
78.265625 -0.299759912164 0.252222578939 0.584413739784 0.696326140908 0.0 0.0 0.0 0.0
78.28125 -0.299296673164 0.251978199589 0.585247447242 0.695774521144 0.0 0.0 0.0 0.0
78.296875 -0.298859163567 0.251715383944 0.586081122949 0.69522153623 0.0 0.0 0.0 0.0
78.3125 -0.298447763022 0.251433932446 0.586914841335 0.694667463279 0.0 0.0 0.0 0.0
78.328125 -0.298062594621 0.251134004884 0.587748401642 0.694112159024 0.0 0.0 0.0 0.0
78.34375 -0.297704061462 0.250815416354 0.588581964803 0.693555533665 0.0 0.0 0.0 0.0
78.359375 -0.297372194491 0.250478411185 0.589415468087 0.692997514504 0.0 0.0 0.0 0.0
78.375 -0.297067288521 0.250122841687 0.590249027586 0.692438426041 0.0 0.0 0.0 0.0
78.390625 -0.296789696102 0.249748875722 0.591082251253 0.691877902607 0.0 0.0 0.0 0.0
78.40625 -0.29653948871 0.249356406048 0.59191553322 0.691316220882 0.0 0.0 0.0 0.0
78.421875 -0.296317076067 0.248945571468 0.592748874476 0.690753196154 0.0 0.0 0.0 0.0
78.4375 -0.296122470707 0.248516440685 0.593582026858 0.690189005499 0.0 0.0 0.0 0.0
78.453125 -0.2959560434 0.248068906821 0.594415071374 0.689623651235 0.0 0.0 0.0 0.0
78.46875 -0.295817798826 0.247603087547 0.595248057349 0.68905700585 0.0 0.0 0.0 0.0
78.484375 -0.29570795113 0.247119101393 0.59608071355 0.68848912769 0.0 0.0 0.0 0.0
78.5 -0.295626760718 0.246616931362 0.596913353109 0.687919916912 0.0 0.0 0.0 0.0
78.515625 -0.295574418263 0.246096695619 0.597745857788 0.687349423465 0.0 0.0 0.0 0.0
78.53125 -0.295550884086 0.245558379429 0.59857824917 0.686777858078 0.0 0.0 0.0 0.0
78.546875 -0.295556473661 0.24500198974 0.599410369675 0.686205040875 0.0 0.0 0.0 0.0
78.5625 -0.295591271205 0.244427665563 0.600242378693 0.68563097143 0.0 0.0 0.0 0.0
78.578125 -0.295655423893 0.243835588768 0.601074245722 0.68505552409 0.0 0.0 0.0 0.0
78.59375 -0.295749044299 0.243225572778 0.601905918077 0.684479191973 0.0 0.0 0.0 0.0
