!SWISSto12 MCK measurement data
!name=Asphalt_58421AC8DS_19052022_1
!thickness[mm]=23.000
# GHz S RI R 50.0 
!freq ReS11 ImS11 ReS21 ImS21 ReS12 ImS12 ReS22 ImS22
75.0 -0.356557807223 0.103382733992 0.100778147019 -0.168528861094 0.0 0.0 0.0 0.0
75.015625 -0.356290697271 0.103611399667 0.0981240110278 -0.169918827912 0.0 0.0 0.0 0.0
75.03125 -0.356014678037 0.103849339982 0.0954505220333 -0.171267696015 0.0 0.0 0.0 0.0
75.046875 -0.355729177766 0.104096121722 0.0927582920043 -0.172575272429 0.0 0.0 0.0 0.0
75.0625 -0.355432232416 0.104353316073 0.0900480180736 -0.173841255212 0.0 0.0 0.0 0.0
75.078125 -0.355125652446 0.104621602866 0.0873203003858 -0.175065383469 0.0 0.0 0.0 0.0
75.09375 -0.354809967483 0.10490081362 0.0845758132114 -0.176247489329 0.0 0.0 0.0 0.0
75.109375 -0.354485245128 0.105190477189 0.0818152436639 -0.177387291883 0.0 0.0 0.0 0.0
75.125 -0.354151395773 0.10549065292 0.079039225492 -0.178484549268 0.0 0.0 0.0 0.0
75.140625 -0.353808529979 0.105801150333 0.0762483729152 -0.179539038929 0.0 0.0 0.0 0.0
75.15625 -0.353456510972 0.106121755616 0.0734434403586 -0.180550606086 0.0 0.0 0.0 0.0
75.171875 -0.353095438165 0.106452593808 0.0706250134757 -0.181519108554 0.0 0.0 0.0 0.0
75.1875 -0.352725166986 0.106793471707 0.0677938592665 -0.182444228356 0.0 0.0 0.0 0.0
75.203125 -0.352345753316 0.107144370656 0.0649505680697 -0.183325912261 0.0 0.0 0.0 0.0
75.21875 -0.351957157647 0.107505165154 0.0620958142233 -0.184163969908 0.0 0.0 0.0 0.0
75.234375 -0.3515593538 0.107875822179 0.0592303006061 -0.184958214008 0.0 0.0 0.0 0.0
75.25 -0.35115223426 0.108256295135 0.0563547527857 -0.185708531049 0.0 0.0 0.0 0.0
75.265625 -0.35073588141 0.108646466483 0.053469760543 -0.186414815807 0.0 0.0 0.0 0.0
75.28125 -0.350310113687 0.109046251149 0.0505760774934 -0.187076880132 0.0 0.0 0.0 0.0
75.296875 -0.349875064305 0.109455634694 0.0476743598519 -0.187694774996 0.0 0.0 0.0 0.0
75.3125 -0.349430761122 0.109874530918 0.0447652570654 -0.188268232113 0.0 0.0 0.0 0.0
75.328125 -0.348976955945 0.110302791074 0.0418495403155 -0.18879725105 0.0 0.0 0.0 0.0
75.34375 -0.348513851818 0.110740304888 0.0389278663846 -0.189281696479 0.0 0.0 0.0 0.0
75.359375 -0.348041214429 0.111187142017 0.0360008659236 -0.189721556193 0.0 0.0 0.0 0.0
75.375 -0.347559275031 0.11164309745 0.0330692938019 -0.190116803248 0.0 0.0 0.0 0.0
75.390625 -0.347067793823 0.112108121104 0.0301338328495 -0.19046730825 0.0 0.0 0.0 0.0
75.40625 -0.346566899411 0.112582062809 0.0271951191952 -0.190773131212 0.0 0.0 0.0 0.0
75.421875 -0.346056595099 0.113064897263 0.0242539028445 -0.191034260476 0.0 0.0 0.0 0.0
75.4375 -0.345536746804 0.113556501945 0.0213108099699 -0.191250521495 0.0 0.0 0.0 0.0
75.453125 -0.345007425464 0.114056769084 0.0183665875317 -0.191422097429 0.0 0.0 0.0 0.0
75.46875 -0.344468463218 0.114565549287 0.015421894253 -0.191548873863 0.0 0.0 0.0 0.0
75.484375 -0.343920078291 0.115082794527 0.0124774366614 -0.191630975824 0.0 0.0 0.0 0.0
75.5 -0.343362068934 0.115608328918 0.00953387920558 -0.19166835189 0.0 0.0 0.0 0.0
75.515625 -0.342794582089 0.116141939401 0.00659189497883 -0.1916610868 0.0 0.0 0.0 0.0
75.53125 -0.342217396921 0.116683631374 0.00365220329878 -0.191609211125 0.0 0.0 0.0 0.0
75.546875 -0.341630654209 0.117233086241 0.000715498164872 -0.191512810659 0.0 0.0 0.0 0.0
75.5625 -0.341034330674 0.117790221657 -0.00221760488323 -0.191371918679 0.0 0.0 0.0 0.0
75.578125 -0.340428263303 0.118354753052 -0.00514633860448 -0.191186663414 0.0 0.0 0.0 0.0
75.59375 -0.339812560323 0.118926463106 -0.00807011312667 -0.190957055679 0.0 0.0 0.0 0.0
75.609375 -0.339186587055 0.119504987243 -0.0109881692565 -0.19068333149 0.0 0.0 0.0 0.0
75.625 -0.338549899369 0.120090376774 -0.0138999218235 -0.190365541024 0.0 0.0 0.0 0.0
75.640625 -0.337902201892 0.120683668816 -0.0168046372109 -0.190003815946 0.0 0.0 0.0 0.0
75.65625 -0.3372443223 0.121284954401 -0.0197016330537 -0.189598276187 0.0 0.0 0.0 0.0
75.671875 -0.336576605758 0.121894030288 -0.0225903366681 -0.189149103332 0.0 0.0 0.0 0.0
75.6875 -0.335899232669 0.122510686633 -0.0254700179025 -0.188656421052 0.0 0.0 0.0 0.0
75.703125 -0.335212240244 0.123134649492 -0.0283399977659 -0.188120360064 0.0 0.0 0.0 0.0
75.71875 -0.334515768883 0.123765708172 -0.0311997150637 -0.187541148983 0.0 0.0 0.0 0.0
75.734375 -0.333809701389 0.12440378462 -0.0340483680905 -0.186918938249 0.0 0.0 0.0 0.0
75.75 -0.333094215179 0.125048681426 -0.0368854786282 -0.186253961416 0.0 0.0 0.0 0.0
75.765625 -0.33236934999 0.125700125129 -0.0397102551772 -0.18554641306 0.0 0.0 0.0 0.0
75.78125 -0.331635135656 0.126358091218 -0.042522131088 -0.184796455745 0.0 0.0 0.0 0.0
75.796875 -0.330891493772 0.127022399315 -0.0453204812143 -0.184004336211 0.0 0.0 0.0 0.0
75.8125 -0.330138728566 0.127692851139 -0.0481045688248 -0.183170362234 0.0 0.0 0.0 0.0
75.828125 -0.329376588013 0.128369287266 -0.050873869582 -0.182294649516 0.0 0.0 0.0 0.0
75.84375 -0.328605374371 0.12905162325 -0.0536277146947 -0.181377553791 0.0 0.0 0.0 0.0
75.859375 -0.3278249245 0.129739580825 -0.0563654631008 -0.180419328546 0.0 0.0 0.0 0.0
75.875 -0.327035491524 0.130433095625 -0.059086512355 -0.179420182913 0.0 0.0 0.0 0.0
75.890625 -0.326236981726 0.131131928488 -0.0617902537316 -0.178380468768 0.0 0.0 0.0 0.0
75.90625 -0.32542953599 0.131835983965 -0.0644760992112 -0.177300432347 0.0 0.0 0.0 0.0
75.921875 -0.324613151505 0.132545008211 -0.0671433688889 -0.176180363892 0.0 0.0 0.0 0.0
75.9375 -0.32378797837 0.133258885374 -0.0697915808706 -0.175020646322 0.0 0.0 0.0 0.0
75.953125 -0.322954006417 0.133977484882 -0.0724200591835 -0.173821502606 0.0 0.0 0.0 0.0
75.96875 -0.322111408305 0.134700537683 -0.0750282558551 -0.172583339688 0.0 0.0 0.0 0.0
75.984375 -0.321260148218 0.135427978432 -0.0776155504804 -0.171306449402 0.0 0.0 0.0 0.0
76.0 -0.320400466985 0.136159480424 -0.0801814198425 -0.169991158921 0.0 0.0 0.0 0.0
76.015625 -0.319532262774 0.136895038945 -0.0827252733651 -0.168637882045 0.0 0.0 0.0 0.0
76.03125 -0.318655663753 0.13763430596 -0.0852465183566 -0.167246909333 0.0 0.0 0.0 0.0
76.046875 -0.317770747817 0.138377152096 -0.0877445773198 -0.165818674464 0.0 0.0 0.0 0.0
76.0625 -0.316877667195 0.139123468605 -0.0902190159927 -0.164353500293 0.0 0.0 0.0 0.0
76.078125 -0.315976539302 0.139872944316 -0.0926691333261 -0.162851793056 0.0 0.0 0.0 0.0
76.09375 -0.315067325536 0.140625438755 -0.0950945560236 -0.161313978987 0.0 0.0 0.0 0.0
76.109375 -0.314150084004 0.14138069039 -0.0974946199475 -0.159740423592 0.0 0.0 0.0 0.0
76.125 -0.313224885505 0.14213850675 -0.0998689108292 -0.158131523664 0.0 0.0 0.0 0.0
76.140625 -0.312291811424 0.142898675652 -0.102216787276 -0.156487730796 0.0 0.0 0.0 0.0
76.15625 -0.311350690789 0.143660906958 -0.104537816384 -0.154809451276 0.0 0.0 0.0 0.0
76.171875 -0.310401436021 0.144425273014 -0.106831488959 -0.153097151112 0.0 0.0 0.0 0.0
76.1875 -0.309444234982 0.145191960797 -0.109097288938 -0.151351239539 0.0 0.0 0.0 0.0
76.203125 -0.308479271481 0.145960893748 -0.111334725312 -0.149572119543 0.0 0.0 0.0 0.0
76.21875 -0.307507076471 0.14673196229 -0.113543346845 -0.147760329044 0.0 0.0 0.0 0.0
76.234375 -0.306527678049 0.147504810427 -0.115722651671 -0.14591625179 0.0 0.0 0.0 0.0
76.25 -0.305541408816 0.148279317996 -0.117872186066 -0.144040375124 0.0 0.0 0.0 0.0
76.265625 -0.304548343634 0.149055130664 -0.119991485846 -0.14213320818 0.0 0.0 0.0 0.0
76.28125 -0.303548714236 0.149832173478 -0.122080050908 -0.140195252349 0.0 0.0 0.0 0.0
76.296875 -0.302542774824 0.150610159977 -0.124137514114 -0.13822693442 0.0 0.0 0.0 0.0
76.3125 -0.30153057653 0.151389132982 -0.126163389238 -0.136228768916 0.0 0.0 0.0 0.0
76.328125 -0.300512216551 0.152168631345 -0.128157284743 -0.134201226022 0.0 0.0 0.0 0.0
76.34375 -0.299487967958 0.152948674654 -0.130118737898 -0.132144912829 0.0 0.0 0.0 0.0
76.359375 -0.298457660622 0.153728932938 -0.132047406494 -0.130060133705 0.0 0.0 0.0 0.0
76.375 -0.297421830361 0.154509163007 -0.133942817786 -0.127947621101 0.0 0.0 0.0 0.0
76.390625 -0.296380462855 0.155289307656 -0.135804583586 -0.125807839032 0.0 0.0 0.0 0.0
76.40625 -0.295333715473 0.156068984867 -0.137632322806 -0.123641193092 0.0 0.0 0.0 0.0
76.421875 -0.294281763631 0.156848101284 -0.139425661623 -0.121448426618 0.0 0.0 0.0 0.0
76.4375 -0.293224946364 0.157626415276 -0.141184251695 -0.119229904482 0.0 0.0 0.0 0.0
76.453125 -0.292163231056 0.158403841763 -0.142907696077 -0.116986212454 0.0 0.0 0.0 0.0
76.46875 -0.291096925791 0.159179977601 -0.144595656453 -0.114717981011 0.0 0.0 0.0 0.0
76.484375 -0.290026107723 0.159954700191 -0.146247755303 -0.112425679999 0.0 0.0 0.0 0.0
76.5 -0.28895108258 0.160727927003 -0.147863732174 -0.110109870945 0.0 0.0 0.0 0.0
76.515625 -0.287871983164 0.161499219238 -0.149443199723 -0.107771199185 0.0 0.0 0.0 0.0
76.53125 -0.286789047041 0.162268627614 -0.150985835506 -0.105410174128 0.0 0.0 0.0 0.0
76.546875 -0.285702430554 0.163035832994 -0.152491383081 -0.10302729198 0.0 0.0 0.0 0.0
76.5625 -0.284612423718 0.163800582846 -0.153959550312 -0.10062325828 0.0 0.0 0.0 0.0
76.578125 -0.283519142368 0.164562717678 -0.155389960504 -0.0981986017764 0.0 0.0 0.0 0.0
76.59375 -0.282422795154 0.165321995224 -0.156782354495 -0.0957538713216 0.0 0.0 0.0 0.0
76.609375 -0.281323604625 0.16607829843 -0.15813654166 -0.0932897115044 0.0 0.0 0.0 0.0
76.625 -0.28022183729 0.166831300184 -0.159452203427 -0.0908066854501 0.0 0.0 0.0 0.0
76.640625 -0.279117628588 0.167580902326 -0.160729087496 -0.0883053397405 0.0 0.0 0.0 0.0
76.65625 -0.278011193379 0.168326740806 -0.161966932418 -0.0857863818467 0.0 0.0 0.0 0.0
76.671875 -0.276902822448 0.169068817441 -0.163165509525 -0.0832503125917 0.0 0.0 0.0 0.0
76.6875 -0.275792720503 0.169806731916 -0.164324618786 -0.0806978112447 0.0 0.0 0.0 0.0
76.703125 -0.274680967957 0.170540364292 -0.165443988234 -0.0781294098176 0.0 0.0 0.0 0.0
76.71875 -0.273567937655 0.171269398466 -0.166523478621 -0.0755457046379 0.0 0.0 0.0 0.0
76.734375 -0.272453737369 0.171993750403 -0.167562881086 -0.0729474688199 0.0 0.0 0.0 0.0
76.75 -0.271338572157 0.172713120378 -0.168561914668 -0.0703351236557 0.0 0.0 0.0 0.0
76.765625 -0.270222439988 0.173427345408 -0.169520539811 -0.0677093533275 0.0 0.0 0.0 0.0
76.78125 -0.269105583022 0.174136343496 -0.170438451873 -0.0650708331156 0.0 0.0 0.0 0.0
76.796875 -0.267988442945 0.174840116126 -0.171315611794 -0.0624200818157 0.0 0.0 0.0 0.0
76.8125 -0.266871066091 0.175538565781 -0.172151736414 -0.0597578354758 0.0 0.0 0.0 0.0
76.828125 -0.265753921297 0.176231467847 -0.172946817564 -0.0570845671581 0.0 0.0 0.0 0.0
76.84375 -0.264637260988 0.176918741638 -0.17370057818 -0.0544010660097 0.0 0.0 0.0 0.0
76.859375 -0.263521238688 0.177600269686 -0.174413068 -0.0517078680761 0.0 0.0 0.0 0.0
76.875 -0.262406276824 0.178275481136 -0.175084012421 -0.0490055595513 0.0 0.0 0.0 0.0
76.890625 -0.261292659034 0.178944457232 -0.175713440491 -0.046294865724 0.0 0.0 0.0 0.0
76.90625 -0.260180609697 0.179606936791 -0.176301117212 -0.0435763855828 0.0 0.0 0.0 0.0
76.921875 -0.259070501248 0.180262636721 -0.176847078769 -0.0408507387909 0.0 0.0 0.0 0.0
76.9375 -0.257962579918 0.180911524348 -0.177351174796 -0.0381184964021 0.0 0.0 0.0 0.0
76.953125 -0.256857179835 0.181553146067 -0.177813349659 -0.0353804000368 0.0 0.0 0.0 0.0
76.96875 -0.255754605411 0.182187698845 -0.178233520135 -0.0326369864061 0.0 0.0 0.0 0.0
76.984375 -0.25465506585 0.182814623703 -0.178611739488 -0.0298889633057 0.0 0.0 0.0 0.0
77.0 -0.253558879624 0.183433930721 -0.178947853192 -0.0271369010887 0.0 0.0 0.0 0.0
77.015625 -0.252466433766 0.184045479621 -0.179241843832 -0.0243814438235 0.0 0.0 0.0 0.0
77.03125 -0.251377882172 0.184648990954 -0.17949375719 -0.0216232895156 0.0 0.0 0.0 0.0
77.046875 -0.250293678977 0.18524430549 -0.179703543703 -0.018863023476 0.0 0.0 0.0 0.0
77.0625 -0.249214054711 0.185831285394 -0.179871180046 -0.0161012348982 0.0 0.0 0.0 0.0
77.078125 -0.248139365043 0.186409631497 -0.17999669815 -0.0133386620426 0.0 0.0 0.0 0.0
77.09375 -0.247069760943 0.186979437793 -0.18008013704 -0.0105758476311 0.0 0.0 0.0 0.0
77.109375 -0.246005724729 0.187540250476 -0.180121475961 -0.00781342588862 0.0 0.0 0.0 0.0
77.125 -0.244947466983 0.188091983839 -0.18012074191 -0.00505208196562 0.0 0.0 0.0 0.0
77.140625 -0.243895299191 0.1886344253 -0.180078034326 -0.00229245304021 0.0 0.0 0.0 0.0
77.15625 -0.242849615801 0.189167482872 -0.179993363042 0.000464923879771 0.0 0.0 0.0 0.0
77.171875 -0.24181067652 0.189690912875 -0.179866824027 0.0032193199832 0.0 0.0 0.0 0.0
77.1875 -0.240778745493 0.190204582026 -0.179698443183 0.00597019911055 0.0 0.0 0.0 0.0
77.203125 -0.239754166513 0.190708423656 -0.179488338289 0.00871683621719 0.0 0.0 0.0 0.0
77.21875 -0.238737316299 0.191202011052 -0.179236587589 0.0114587467199 0.0 0.0 0.0 0.0
77.234375 -0.237728374051 0.191685441236 -0.178943269212 0.0141952068873 0.0 0.0 0.0 0.0
77.25 -0.236727797722 0.192158360182 -0.178608526443 0.0169255947803 0.0 0.0 0.0 0.0
77.265625 -0.235735790745 0.192620682566 -0.178232447647 0.019649333691 0.0 0.0 0.0 0.0
77.28125 -0.234752711412 0.193072400043 -0.177815198228 0.0223657599067 0.0 0.0 0.0 0.0
77.296875 -0.233778827233 0.193513040724 -0.177356850751 0.0250743925457 0.0 0.0 0.0 0.0
77.3125 -0.232814548721 0.193942699617 -0.176857549952 0.0277744223553 0.0 0.0 0.0 0.0
77.328125 -0.231860004269 0.194361083754 -0.176317548343 0.0304653485492 0.0 0.0 0.0 0.0
77.34375 -0.230915630189 0.194768106865 -0.175736877644 0.0331465882928 0.0 0.0 0.0 0.0
77.359375 -0.22998165648 0.195163724051 -0.175115788708 0.0358174996671 0.0 0.0 0.0 0.0
77.375 -0.229058417529 0.195547718154 -0.174454428266 0.0384774234567 0.0 0.0 0.0 0.0
77.390625 -0.228146246343 0.195919979679 -0.173753007028 0.0411259093803 0.0 0.0 0.0 0.0
77.40625 -0.227245436107 0.196280447601 -0.173011710205 0.0437622108426 0.0 0.0 0.0 0.0
77.421875 -0.226356357549 0.196628972643 -0.172230723579 0.0463858748889 0.0 0.0 0.0 0.0
77.4375 -0.225479318253 0.196965380739 -0.17141031135 0.0489961765124 0.0 0.0 0.0 0.0
77.453125 -0.224614685084 0.197289632046 -0.170550610856 0.0515926022699 0.0 0.0 0.0 0.0
77.46875 -0.223762790574 0.197601527859 -0.169651908612 0.054174633415 0.0 0.0 0.0 0.0
77.484375 -0.222923942812 0.197901195596 -0.16871444479 0.0567415411919 0.0 0.0 0.0 0.0
77.5 -0.222098523387 0.198188088004 -0.167738471905 0.0592928507263 0.0 0.0 0.0 0.0
77.515625 -0.22128683851 0.198462336776 -0.166724222725 0.0618279819822 0.0 0.0 0.0 0.0
77.53125 -0.220489173452 0.198723898342 -0.165671993524 0.0643463789422 0.0 0.0 0.0 0.0
77.546875 -0.219705770706 0.19897253288 -0.164582033577 0.0668474186527 0.0 0.0 0.0 0.0
77.5625 -0.21893703391 0.199208308014 -0.163454602052 0.0693306859092 0.0 0.0 0.0 0.0
77.578125 -0.218183272302 0.199430862539 -0.162290018768 0.0717954853497 0.0 0.0 0.0 0.0
77.59375 -0.217444763658 0.199640208006 -0.1610885036 0.0742413350114 0.0 0.0 0.0 0.0
77.609375 -0.216721751822 0.199836246504 -0.159850449897 0.0766676245645 0.0 0.0 0.0 0.0
77.625 -0.216014670217 0.200018816344 -0.158576105092 0.0790739392972 0.0 0.0 0.0 0.0
77.640625 -0.2153237903 0.200187929358 -0.157265790895 0.0814596378322 0.0 0.0 0.0 0.0
77.65625 -0.214649416885 0.200343416074 -0.155919872259 0.0838241534888 0.0 0.0 0.0 0.0
77.671875 -0.213991930706 0.200485259856 -0.154538700977 0.0861669682601 0.0 0.0 0.0 0.0
77.6875 -0.213351515357 0.200613368287 -0.153122558527 0.0884877431683 0.0 0.0 0.0 0.0
77.703125 -0.212728656645 0.200727559184 -0.151671799837 0.0907857474503 0.0 0.0 0.0 0.0
77.71875 -0.212123630602 0.200827776367 -0.150186824962 0.0930605487475 0.0 0.0 0.0 0.0
77.734375 -0.211536643748 0.20091403238 -0.14866793852 0.0953116598104 0.0 0.0 0.0 0.0
77.75 -0.21096810311 0.200986262817 -0.147115551967 0.0975385490897 0.0 0.0 0.0 0.0
77.765625 -0.210418290757 0.201044205412 -0.145530043303 0.0997407211278 0.0 0.0 0.0 0.0
77.78125 -0.209887520339 0.20108797691 -0.143911829419 0.101917708635 0.0 0.0 0.0 0.0
77.796875 -0.209376173897 0.201117385196 -0.14226122714 0.104069032841 0.0 0.0 0.0 0.0
77.8125 -0.208884368589 0.201132278984 -0.140578706906 0.106194150668 0.0 0.0 0.0 0.0
77.828125 -0.208412490229 0.201132818346 -0.138864619355 0.108292665709 0.0 0.0 0.0 0.0
77.84375 -0.207960893939 0.201118866398 -0.137119420833 0.110364086653 0.0 0.0 0.0 0.0
77.859375 -0.207529727808 0.201090219857 -0.13534351631 0.112407942586 0.0 0.0 0.0 0.0
77.875 -0.207119401112 0.201046900684 -0.1335373476 0.114423793224 0.0 0.0 0.0 0.0
77.890625 -0.206730124902 0.200988898948 -0.131701364451 0.116411145005 0.0 0.0 0.0 0.0
77.90625 -0.206362169546 0.200916180627 -0.129835931472 0.118369615813 0.0 0.0 0.0 0.0
77.921875 -0.206015819171 0.200828643584 -0.127941568713 0.120298775995 0.0 0.0 0.0 0.0
77.9375 -0.205691318284 0.200726172471 -0.126018746787 0.122198153543 0.0 0.0 0.0 0.0
77.953125 -0.205388981341 0.200608932347 -0.124067799588 0.124067403093 0.0 0.0 0.0 0.0
77.96875 -0.205109021674 0.20047664007 -0.122089351292 0.125906006022 0.0 0.0 0.0 0.0
77.984375 -0.204851723255 0.200329426614 -0.120083820925 0.127713638703 0.0 0.0 0.0 0.0
78.0 -0.204617275227 0.200167193967 -0.118051658751 0.129489875639 0.0 0.0 0.0 0.0
78.015625 -0.204405890478 0.199989944362 -0.115993287689 0.131234327887 0.0 0.0 0.0 0.0
78.03125 -0.204217886007 0.199797831745 -0.113909330161 0.132946621268 0.0 0.0 0.0 0.0
78.046875 -0.204053474431 0.199590611605 -0.111800182932 0.134626338707 0.0 0.0 0.0 0.0
78.0625 -0.20391286687 0.199368433303 -0.109666371686 0.136273140223 0.0 0.0 0.0 0.0
78.078125 -0.20379634955 0.199131222882 -0.10750844531 0.137886606508 0.0 0.0 0.0 0.0
78.09375 -0.20370410786 0.198879042206 -0.105326873165 0.139466443461 0.0 0.0 0.0 0.0
78.109375 -0.203636389853 0.198611876653 -0.103122118535 0.141012272551 0.0 0.0 0.0 0.0
78.125 -0.20359349883 0.198329865869 -0.100894843314 0.142523748795 0.0 0.0 0.0 0.0
78.140625 -0.20357570092 0.198032816662 -0.0986454576502 0.14400058021 0.0 0.0 0.0 0.0
78.15625 -0.203583065899 0.197720814211 -0.0963745488447 0.145442359994 0.0 0.0 0.0 0.0
78.171875 -0.203616036912 0.197393904221 -0.0940826586096 0.14684886492 0.0 0.0 0.0 0.0
78.1875 -0.203674569817 0.197051994748 -0.0917703260136 0.14821970084 0.0 0.0 0.0 0.0
78.203125 -0.203759031869 0.196695227365 -0.0894380894179 0.149554599721 0.0 0.0 0.0 0.0
78.21875 -0.203869617879 0.196323594662 -0.0870864801921 0.15085328462 0.0 0.0 0.0 0.0
78.234375 -0.204006555365 0.195937086326 -0.084716083031 0.152115479822 0.0 0.0 0.0 0.0
78.25 -0.204169936831 0.195535684317 -0.0823274501691 0.153340852491 0.0 0.0 0.0 0.0
78.265625 -0.204360093428 0.195119511816 -0.0799211854323 0.154529162787 0.0 0.0 0.0 0.0
78.28125 -0.204576974453 0.194688628902 -0.0774977950037 0.155680188859 0.0 0.0 0.0 0.0
78.296875 -0.204820911603 0.194243086283 -0.0750578830439 0.156793646394 0.0 0.0 0.0 0.0
78.3125 -0.205091990338 0.193782819529 -0.0726020174897 0.157869281178 0.0 0.0 0.0 0.0
78.328125 -0.205390374981 0.193307983331 -0.0701308573271 0.158906871609 0.0 0.0 0.0 0.0
78.34375 -0.205716380393 0.192818423392 -0.0676448780635 0.159906184994 0.0 0.0 0.0 0.0
78.359375 -0.206069783379 0.192314318867 -0.065144695195 0.160867018175 0.0 0.0 0.0 0.0
78.375 -0.206451062539 0.191795721703 -0.0626309197907 0.161789160879 0.0 0.0 0.0 0.0
78.390625 -0.20686015634 0.191262705128 -0.0601041596579 0.162672395259 0.0 0.0 0.0 0.0
78.40625 -0.20729731586 0.19071531219 -0.0575650023111 0.163516582635 0.0 0.0 0.0 0.0
78.421875 -0.207762640857 0.190153508758 -0.0550140668295 0.164321542004 0.0 0.0 0.0 0.0
78.4375 -0.208256158818 0.189577511299 -0.0524518861467 0.165087051221 0.0 0.0 0.0 0.0
78.453125 -0.208778129397 0.188987225239 -0.0498791534253 0.165813005645 0.0 0.0 0.0 0.0
78.46875 -0.209328501137 0.188382840949 -0.0472963638754 0.166499213005 0.0 0.0 0.0 0.0
78.484375 -0.209907435217 0.187764396911 -0.0447042426916 0.167145521716 0.0 0.0 0.0 0.0
78.5 -0.210514926486 0.187131968107 -0.042103329584 0.167751804654 0.0 0.0 0.0 0.0
