!SWISSto12 MCK measurement data
!name=Asphalt_LPD1421LV_19052022_2
!thickness[mm]=18.000
# GHz S RI R 50.0 
!freq ReS11 ImS11 ReS21 ImS21 ReS12 ImS12 ReS22 ImS22
75.0 -0.282130824393 -0.142028249943 -0.000170301008582 -0.00907760062658 0.0 0.0 0.0 0.0
75.015625 -0.281745530015 -0.142025893794 -0.000304701790648 -0.00905660562949 0.0 0.0 0.0 0.0
75.03125 -0.281350006671 -0.142017555366 -0.000438505861748 -0.00903366682716 0.0 0.0 0.0 0.0
75.046875 -0.280943935535 -0.142003957588 -0.000571683985292 -0.00900880540778 0.0 0.0 0.0 0.0
75.0625 -0.280524961197 -0.141984495134 -0.000704207634083 -0.00898202710524 0.0 0.0 0.0 0.0
75.078125 -0.280094488689 -0.14195772896 -0.000836052771849 -0.0089533496429 0.0 0.0 0.0 0.0
75.09375 -0.279652902782 -0.14192370472 -0.000967189889685 -0.00892279155484 0.0 0.0 0.0 0.0
75.109375 -0.279200500359 -0.141882717596 -0.00109759024938 -0.00889036392316 0.0 0.0 0.0 0.0
75.125 -0.278737175229 -0.141834717818 -0.00122722809597 -0.00885608193144 0.0 0.0 0.0 0.0
75.140625 -0.278263074867 -0.141779843021 -0.00135607973059 -0.00881996479524 0.0 0.0 0.0 0.0
75.15625 -0.277778138414 -0.141718113112 -0.00148411428116 -0.00878202925776 0.0 0.0 0.0 0.0
75.171875 -0.277282459173 -0.141649626424 -0.00161130522099 -0.00874228802828 0.0 0.0 0.0 0.0
75.1875 -0.276775871928 -0.14157431424 -0.00173763112765 -0.00870076122073 0.0 0.0 0.0 0.0
75.203125 -0.276258479949 -0.141492337756 -0.00186306217369 -0.00865746698871 0.0 0.0 0.0 0.0
75.21875 -0.275730357563 -0.14140369233 -0.00198757813483 -0.00861242200664 0.0 0.0 0.0 0.0
75.234375 -0.275191361391 -0.141308354587 -0.00211115104561 -0.00856564501649 0.0 0.0 0.0 0.0
75.25 -0.274641527031 -0.141206404059 -0.00223375903221 -0.00851715382836 0.0 0.0 0.0 0.0
75.265625 -0.274080840647 -0.141097871459 -0.00235537723133 -0.00846696338217 0.0 0.0 0.0 0.0
75.28125 -0.273509290233 -0.140982788128 -0.00247598191155 -0.00841510482579 0.0 0.0 0.0 0.0
75.296875 -0.272926936779 -0.140861268773 -0.00259554914841 -0.00836158579719 0.0 0.0 0.0 0.0
75.3125 -0.272333762085 -0.140733363737 -0.00271405836069 -0.00830642937209 0.0 0.0 0.0 0.0
75.328125 -0.271729746363 -0.14059898437 -0.0028314873215 -0.0082496595454 0.0 0.0 0.0 0.0
75.34375 -0.271114846192 -0.140458385007 -0.00294781400784 -0.00819129260809 0.0 0.0 0.0 0.0
75.359375 -0.270489117654 -0.140311412301 -0.00306301680404 -0.0081313491784 0.0 0.0 0.0 0.0
75.375 -0.269852578545 -0.140158282103 -0.00317707555434 -0.00806984975391 0.0 0.0 0.0 0.0
75.390625 -0.26920528216 -0.139998999349 -0.0032899640624 -0.00800681769481 0.0 0.0 0.0 0.0
75.40625 -0.268547202654 -0.13983365284 -0.00340166833006 -0.00794227196475 0.0 0.0 0.0 0.0
75.421875 -0.267878373589 -0.139662293187 -0.0035121677031 -0.00787623865025 0.0 0.0 0.0 0.0
75.4375 -0.267198674227 -0.139484912626 -0.00362143894864 -0.00780872894534 0.0 0.0 0.0 0.0
75.453125 -0.26650833965 -0.139301756069 -0.00372946700455 -0.00773977989424 0.0 0.0 0.0 0.0
75.46875 -0.265807188392 -0.139112725696 -0.00383623136132 -0.00766940229367 0.0 0.0 0.0 0.0
75.484375 -0.265095307756 -0.138917998664 -0.00394171108923 -0.00759762441159 0.0 0.0 0.0 0.0
75.5 -0.264372775512 -0.13871770092 -0.00404589147937 -0.00752446339807 0.0 0.0 0.0 0.0
75.515625 -0.263639455453 -0.138511945782 -0.0041487527433 -0.00744994363021 0.0 0.0 0.0 0.0
75.53125 -0.262895589678 -0.138300763705 -0.00425027648174 -0.00737409362989 0.0 0.0 0.0 0.0
75.546875 -0.262141039297 -0.138084420212 -0.00435044900731 -0.00729692675797 0.0 0.0 0.0 0.0
75.5625 -0.261375964737 -0.137863034298 -0.00444925174454 -0.00721847687277 0.0 0.0 0.0 0.0
75.578125 -0.260600342532 -0.13763672714 -0.00454666971315 -0.00713876322231 0.0 0.0 0.0 0.0
75.59375 -0.259814046369 -0.137405818025 -0.00464268321129 -0.00705780399068 0.0 0.0 0.0 0.0
75.609375 -0.259017104381 -0.137170681006 -0.00473728118775 -0.00697563442041 0.0 0.0 0.0 0.0
75.625 -0.258208686847 -0.136931594197 -0.00483044364324 -0.0068922695112 0.0 0.0 0.0 0.0
75.640625 -0.257388373693 -0.136687603395 -0.00492216255405 -0.00680774342233 0.0 0.0 0.0 0.0
75.65625 -0.256556773423 -0.136438295455 -0.00501241720563 -0.00672206803201 0.0 0.0 0.0 0.0
75.671875 -0.255714257389 -0.136183838742 -0.00510120188226 -0.00663528123759 0.0 0.0 0.0 0.0
75.6875 -0.254860952212 -0.135924249818 -0.00518849724498 -0.00654739475683 0.0 0.0 0.0 0.0
75.703125 -0.253997141943 -0.135659857562 -0.0052742938488 -0.00645844570511 0.0 0.0 0.0 0.0
75.71875 -0.253122925921 -0.135390662445 -0.00535857516074 -0.00636844927097 0.0 0.0 0.0 0.0
75.734375 -0.252238237199 -0.135116845932 -0.00544133240535 -0.00627743359063 0.0 0.0 0.0 0.0
75.75 -0.25134330402 -0.134838507068 -0.00552254999687 -0.00618542841726 0.0 0.0 0.0 0.0
75.765625 -0.250438058811 -0.134555832965 -0.00560222279092 -0.00609245488116 0.0 0.0 0.0 0.0
75.78125 -0.249522863247 -0.134268873523 -0.00568033687263 -0.00599853733961 0.0 0.0 0.0 0.0
75.796875 -0.248597398341 -0.133977762061 -0.00575687808569 -0.00590370611844 0.0 0.0 0.0 0.0
75.8125 -0.247662160361 -0.133682693328 -0.00583184328849 -0.00580798662307 0.0 0.0 0.0 0.0
75.828125 -0.246716970269 -0.133383742348 -0.00590522037792 -0.00571139802137 0.0 0.0 0.0 0.0
75.84375 -0.245761954295 -0.133080944332 -0.00597699919896 -0.00561397354818 0.0 0.0 0.0 0.0
75.859375 -0.244797241249 -0.132774588444 -0.00604717219987 -0.00551573927387 0.0 0.0 0.0 0.0
75.875 -0.243822927911 -0.132464700851 -0.00611572811396 -0.0054167205407 0.0 0.0 0.0 0.0
75.890625 -0.242839029026 -0.132151461317 -0.00618266032409 -0.00531693801274 0.0 0.0 0.0 0.0
75.90625 -0.241845706952 -0.131834906976 -0.00624796636502 -0.00521642426529 0.0 0.0 0.0 0.0
75.921875 -0.240843081006 -0.131515217637 -0.00631163206985 -0.00511520428963 0.0 0.0 0.0 0.0
75.9375 -0.239831214379 -0.131192612238 -0.00637365341186 -0.0050133084717 0.0 0.0 0.0 0.0
75.953125 -0.238810280734 -0.130867169826 -0.00643402940224 -0.00491075805984 0.0 0.0 0.0 0.0
75.96875 -0.237780301658 -0.130538936537 -0.00649274446911 -0.00480758197384 0.0 0.0 0.0 0.0
75.984375 -0.236741465981 -0.130208150887 -0.00654980020653 -0.0047038110072 0.0 0.0 0.0 0.0
76.0 -0.235693832614 -0.12987491537 -0.00660519379257 -0.00459946421626 0.0 0.0 0.0 0.0
76.015625 -0.234637591139 -0.129539401873 -0.00665891932227 -0.00449457146747 0.0 0.0 0.0 0.0
76.03125 -0.233572789685 -0.129201671347 -0.00671097091182 -0.00438915719685 0.0 0.0 0.0 0.0
76.046875 -0.23249961861 -0.128861952231 -0.00676134893316 -0.00428324973783 0.0 0.0 0.0 0.0
76.0625 -0.231418123606 -0.128520369314 -0.00681004715748 -0.00417687532644 0.0 0.0 0.0 0.0
76.078125 -0.230328571996 -0.128177066788 -0.00685706581073 -0.00407006394889 0.0 0.0 0.0 0.0
76.09375 -0.229230959041 -0.127832316228 -0.00690240070835 -0.00396284006168 0.0 0.0 0.0 0.0
76.109375 -0.228125480853 -0.127486146102 -0.00694605206315 -0.00385522807451 0.0 0.0 0.0 0.0
76.125 -0.227012164339 -0.12713882737 -0.0069880193728 -0.00374725412873 0.0 0.0 0.0 0.0
76.140625 -0.22589115887 -0.126790584613 -0.00702830059173 -0.00363894802196 0.0 0.0 0.0 0.0
76.15625 -0.224762423849 -0.126441570868 -0.00706689307403 -0.0035303342261 0.0 0.0 0.0 0.0
76.171875 -0.223625818878 -0.126091945871 -0.00710380164941 -0.00342143841398 0.0 0.0 0.0 0.0
76.1875 -0.222481295101 -0.125741483725 -0.00713902344907 -0.00331228681321 0.0 0.0 0.0 0.0
76.203125 -0.221329362281 -0.125390060778 -0.00717256004758 -0.00320290526323 0.0 0.0 0.0 0.0
76.21875 -0.220170181364 -0.125037710682 -0.00720442055542 -0.00309332028225 0.0 0.0 0.0 0.0
76.234375 -0.21900406839 -0.124684641228 -0.00723459935991 -0.00298355838409 0.0 0.0 0.0 0.0
76.25 -0.217831325185 -0.124330964004 -0.00726309926053 -0.00287364505603 0.0 0.0 0.0 0.0
76.265625 -0.216652123479 -0.123976955349 -0.00728992736831 -0.00276360491958 0.0 0.0 0.0 0.0
76.28125 -0.215466713778 -0.123622636386 -0.00731508254566 -0.00265346574558 0.0 0.0 0.0 0.0
76.296875 -0.214275352538 -0.123268231626 -0.00733856946526 -0.00254325065689 0.0 0.0 0.0 0.0
76.3125 -0.213078162047 -0.122913809878 -0.00736039627738 -0.00243298366462 0.0 0.0 0.0 0.0
76.328125 -0.211875330411 -0.122559485231 -0.00738056368866 -0.00232269029751 0.0 0.0 0.0 0.0
76.34375 -0.210667108318 -0.12220547177 -0.00739907609041 -0.00221239710872 0.0 0.0 0.0 0.0
76.359375 -0.209453567269 -0.121851858072 -0.00741593946157 -0.00210212655154 0.0 0.0 0.0 0.0
76.375 -0.208235105112 -0.121498854644 -0.00743115894913 -0.00199190484564 0.0 0.0 0.0 0.0
76.390625 -0.207011842977 -0.121146556278 -0.00744474443162 -0.00188175490937 0.0 0.0 0.0 0.0
76.40625 -0.205783942705 -0.120795088182 -0.00745669526087 -0.00177170090769 0.0 0.0 0.0 0.0
76.421875 -0.204551687343 -0.120444671908 -0.00746702148003 -0.0016617674186 0.0 0.0 0.0 0.0
76.4375 -0.203315320265 -0.120095430451 -0.00747572691451 -0.00155197727028 0.0 0.0 0.0 0.0
76.453125 -0.202074998333 -0.119747370921 -0.00748282556148 -0.00144235518713 0.0 0.0 0.0 0.0
76.46875 -0.200831032392 -0.119400790593 -0.00748831825199 -0.00133292495959 0.0 0.0 0.0 0.0
76.484375 -0.199583589359 -0.119055763005 -0.00749221411607 -0.00122370365544 0.0 0.0 0.0 0.0
76.5 -0.198332899488 -0.118712398235 -0.0074945270526 -0.00111472107701 0.0 0.0 0.0 0.0
76.515625 -0.197079289698 -0.118370881476 -0.00749526281869 -0.00100599712892 0.0 0.0 0.0 0.0
76.53125 -0.195822930025 -0.118031303145 -0.00749443016838 -0.000897556074186 0.0 0.0 0.0 0.0
76.546875 -0.19456408871 -0.117693873557 -0.00749204197979 -0.000789418309329 0.0 0.0 0.0 0.0
76.5625 -0.193303052379 -0.11735866284 -0.00748810125406 -0.000681604914981 0.0 0.0 0.0 0.0
76.578125 -0.192040053337 -0.117025867206 -0.00748262757452 -0.000574140376793 0.0 0.0 0.0 0.0
76.59375 -0.190775310371 -0.116695550545 -0.00747562143882 -0.000467043164238 0.0 0.0 0.0 0.0
76.609375 -0.189509116585 -0.116367926966 -0.00746709965551 -0.000360338840546 0.0 0.0 0.0 0.0
76.625 -0.188241807057 -0.116043080044 -0.00745707329055 -0.000254042183347 0.0 0.0 0.0 0.0
76.640625 -0.186973501816 -0.115721152294 -0.00744555632957 -0.000148181708046 0.0 0.0 0.0 0.0
76.65625 -0.185704562992 -0.115402296765 -0.0074325504797 -4.27695390341e-05 0.0 0.0 0.0 0.0
76.671875 -0.18443524782 -0.115086637429 -0.0074180769899 6.21681697702e-05 0.0 0.0 0.0 0.0
76.6875 -0.18316579688 -0.114774356476 -0.00740214759965 0.00016661772269 0.0 0.0 0.0 0.0
76.703125 -0.181896510023 -0.114465571406 -0.00738476783046 0.000270555550937 0.0 0.0 0.0 0.0
76.71875 -0.180627657647 -0.114160475758 -0.00736595646939 0.000373962592276 0.0 0.0 0.0 0.0
76.734375 -0.179359403346 -0.11385915364 -0.00734572589211 0.000476821942019 0.0 0.0 0.0 0.0
76.75 -0.178092032448 -0.113561833475 -0.00732408568423 0.00057911277644 0.0 0.0 0.0 0.0
76.765625 -0.176825662035 -0.113268603007 -0.00730105826604 0.000680819460635 0.0 0.0 0.0 0.0
76.78125 -0.175560542731 -0.112979502797 -0.00727664749243 0.00078191925709 0.0 0.0 0.0 0.0
76.796875 -0.174296967741 -0.112694538306 -0.00725087252114 0.000882400806186 0.0 0.0 0.0 0.0
76.8125 -0.173035150909 -0.112413701225 -0.0072237472681 0.000982242801194 0.0 0.0 0.0 0.0
76.828125 -0.171775511151 -0.112136990226 -0.00719528203753 0.0010814295331 0.0 0.0 0.0 0.0
76.84375 -0.170518311541 -0.111864586426 -0.00716550049107 0.00117994361264 0.0 0.0 0.0 0.0
76.859375 -0.169263869655 -0.111596530971 -0.00713440973686 0.00127777136411 0.0 0.0 0.0 0.0
76.875 -0.16801268232 -0.111333021946 -0.00710202742291 0.00137489510704 0.0 0.0 0.0 0.0
76.890625 -0.166765048254 -0.111074213649 -0.00706836792657 0.00147129887183 0.0 0.0 0.0 0.0
76.90625 -0.165521203458 -0.11081998318 -0.0070334493035 0.00156696577517 0.0 0.0 0.0 0.0
76.921875 -0.164281639087 -0.110570641238 -0.00699728278337 0.00166188167811 0.0 0.0 0.0 0.0
76.9375 -0.163046578194 -0.110326134243 -0.00695988536513 0.00175603590618 0.0 0.0 0.0 0.0
76.953125 -0.161816441009 -0.110086722746 -0.00692127286982 0.00184940995581 0.0 0.0 0.0 0.0
76.96875 -0.16059154321 -0.109852304374 -0.00688146293892 0.00194199202866 0.0 0.0 0.0 0.0
76.984375 -0.159372171539 -0.109623111122 -0.00684047018547 0.00203376982537 0.0 0.0 0.0 0.0
77.0 -0.158158666038 -0.109399167232 -0.00679830983097 0.00212472946222 0.0 0.0 0.0 0.0
77.015625 -0.156951452493 -0.109180581632 -0.00675499841231 0.00221485372768 0.0 0.0 0.0 0.0
77.03125 -0.155750716397 -0.108967352283 -0.00671055266737 0.00230413572369 0.0 0.0 0.0 0.0
77.046875 -0.154557031654 -0.108759710707 -0.00666498515273 0.00239256141007 0.0 0.0 0.0 0.0
77.0625 -0.153370602753 -0.108557671205 -0.00661832223632 0.00248011593027 0.0 0.0 0.0 0.0
77.078125 -0.152191853881 -0.108361320147 -0.0065705741031 0.00256679304764 0.0 0.0 0.0 0.0
77.09375 -0.151020989821 -0.108170614412 -0.00652175429288 0.00265257775198 0.0 0.0 0.0 0.0
77.109375 -0.149858534608 -0.107985825316 -0.00647188727052 0.00273746173496 0.0 0.0 0.0 0.0
77.125 -0.148704769382 -0.107806985721 -0.00642098248521 0.00282143291439 0.0 0.0 0.0 0.0
77.140625 -0.147560050337 -0.107634118167 -0.00636905873648 0.00290448125438 0.0 0.0 0.0 0.0
77.15625 -0.146424738864 -0.107467261666 -0.00631614116865 0.00298659807036 0.0 0.0 0.0 0.0
77.171875 -0.145299211184 -0.107306658406 -0.00626223586296 0.00306777234569 0.0 0.0 0.0 0.0
77.1875 -0.14418381414 -0.107152241536 -0.00620736356268 0.00314799804125 0.0 0.0 0.0 0.0
77.203125 -0.143078813971 -0.107004046759 -0.00615154284608 0.00322726021094 0.0 0.0 0.0 0.0
77.21875 -0.141984791518 -0.10686226857 -0.00609478557262 0.0033055573304 0.0 0.0 0.0 0.0
77.234375 -0.140901819137 -0.106726822915 -0.00603711311416 0.00338287645102 0.0 0.0 0.0 0.0
77.25 -0.139830523823 -0.106597982151 -0.0059785452099 0.00345920838189 0.0 0.0 0.0 0.0
77.265625 -0.138771086182 -0.106475665652 -0.0059190907868 0.00353455073432 0.0 0.0 0.0 0.0
77.28125 -0.137723889858 -0.106359842922 -0.00585877136745 0.00360889160746 0.0 0.0 0.0 0.0
77.296875 -0.136689361012 -0.106250765737 -0.00579760120955 0.00368222577454 0.0 0.0 0.0 0.0
77.3125 -0.135667826961 -0.106148491433 -0.00573559798287 0.00375454824611 0.0 0.0 0.0 0.0
77.328125 -0.134659566276 -0.106052921519 -0.00567278125518 0.00382585131478 0.0 0.0 0.0 0.0
77.34375 -0.133665045583 -0.105964264926 -0.00560916359817 0.00389612727027 0.0 0.0 0.0 0.0
77.359375 -0.13268441892 -0.105882424623 -0.00554476496413 0.00396537367514 0.0 0.0 0.0 0.0
77.375 -0.131718111082 -0.105807415392 -0.00547959756244 0.00403357849705 0.0 0.0 0.0 0.0
77.390625 -0.13076661808 -0.105739426585 -0.00541368492533 0.00410074490153 0.0 0.0 0.0 0.0
77.40625 -0.129830045747 -0.105678245996 -0.00534703689673 0.00416685953225 0.0 0.0 0.0 0.0
77.421875 -0.12890896075 -0.105624033431 -0.00527967317134 0.00423192576234 0.0 0.0 0.0 0.0
77.4375 -0.128003615902 -0.105576779858 -0.0052116106138 0.00429593610555 0.0 0.0 0.0 0.0
77.453125 -0.127114428694 -0.105536423591 -0.00514285933681 0.00435888227976 0.0 0.0 0.0 0.0
77.46875 -0.126241886505 -0.105503162156 -0.00507344419268 0.0044207662308 0.0 0.0 0.0 0.0
77.484375 -0.125385994828 -0.105476589035 -0.00500337298376 0.00448157811119 0.0 0.0 0.0 0.0
77.5 -0.124547576422 -0.10545726547 -0.00493266708014 0.00454131524123 0.0 0.0 0.0 0.0
77.515625 -0.123726691897 -0.105444953848 -0.00486134309101 0.0045999760115 0.0 0.0 0.0 0.0
77.53125 -0.122923888459 -0.105439710951 -0.00478941285789 0.00465755955661 0.0 0.0 0.0 0.0
77.546875 -0.122139416608 -0.105441480628 -0.0047168922494 0.00471405663752 0.0 0.0 0.0 0.0
77.5625 -0.12137364844 -0.105450291737 -0.00464379715284 0.00476947074657 0.0 0.0 0.0 0.0
77.578125 -0.120626997708 -0.105466106032 -0.00457014800172 0.00482379278445 0.0 0.0 0.0 0.0
77.59375 -0.119899718081 -0.105489023804 -0.00449595246812 0.00487702614151 0.0 0.0 0.0 0.0
77.609375 -0.119192226545 -0.105518941437 -0.00442123032493 0.0049291666789 0.0 0.0 0.0 0.0
77.625 -0.118504827366 -0.105555946808 -0.00434599675942 0.00498021083181 0.0 0.0 0.0 0.0
77.640625 -0.117837821328 -0.105599931739 -0.00427026293156 0.00503015864244 0.0 0.0 0.0 0.0
77.65625 -0.117191643701 -0.105650885446 -0.00419404843993 0.00507900674904 0.0 0.0 0.0 0.0
77.671875 -0.11656657689 -0.105708848719 -0.00411736420782 0.00512675545879 0.0 0.0 0.0 0.0
77.6875 -0.115962987875 -0.105773729402 -0.0040402289694 0.00517340245163 0.0 0.0 0.0 0.0
77.703125 -0.115381309771 -0.10584568276 -0.0039626516492 0.00521894596117 0.0 0.0 0.0 0.0
77.71875 -0.114821774898 -0.105924483986 -0.00388464876728 0.00526338559657 0.0 0.0 0.0 0.0
77.734375 -0.1142847203 -0.106010215607 -0.00380623643507 0.0053067178812 0.0 0.0 0.0 0.0
77.75 -0.113770530489 -0.106102720403 -0.00372742744487 0.00534894542546 0.0 0.0 0.0 0.0
77.765625 -0.113279550238 -0.106202199204 -0.0036482363074 0.00539006608377 0.0 0.0 0.0 0.0
77.78125 -0.112812073961 -0.106308419967 -0.0035686767928 0.00543007835929 0.0 0.0 0.0 0.0
77.796875 -0.112368523307 -0.106421577747 -0.00348876489153 0.00546898282293 0.0 0.0 0.0 0.0
77.8125 -0.11194912772 -0.106541539142 -0.00340850757268 0.00550677907781 0.0 0.0 0.0 0.0
77.828125 -0.111554184984 -0.10666821322 -0.00332792574826 0.00554346803018 0.0 0.0 0.0 0.0
77.84375 -0.111184141125 -0.106801614358 -0.00324702847674 0.00557904475307 0.0 0.0 0.0 0.0
77.859375 -0.110839137341 -0.106941697632 -0.00316583571172 0.0056135144503 0.0 0.0 0.0 0.0
77.875 -0.110519646297 -0.107088526868 -0.00308435495446 0.00564687323046 0.0 0.0 0.0 0.0
77.890625 -0.110225905956 -0.107241985389 -0.0030026008609 0.00567912291252 0.0 0.0 0.0 0.0
77.90625 -0.109958171415 -0.107402002128 -0.00292058662032 0.00571026298058 0.0 0.0 0.0 0.0
77.921875 -0.10971678444 -0.107568576363 -0.00283832614598 0.00574029265513 0.0 0.0 0.0 0.0
77.9375 -0.109502041043 -0.107741719606 -0.00275583530395 0.00576921348106 0.0 0.0 0.0 0.0
77.953125 -0.109314167759 -0.107921287059 -0.00267312631356 0.00579702577431 0.0 0.0 0.0 0.0
77.96875 -0.109153536579 -0.108107288465 -0.00259021288665 0.00582372922606 0.0 0.0 0.0 0.0
77.984375 -0.109020350327 -0.10829967792 -0.00250710591222 0.00584932791745 0.0 0.0 0.0 0.0
78.0 -0.10891484226 -0.108498391351 -0.00242381888333 0.00587382170898 0.0 0.0 0.0 0.0
78.015625 -0.108837288055 -0.10870343015 -0.00234036604954 0.00589721029625 0.0 0.0 0.0 0.0
78.03125 -0.108787928515 -0.108914508268 -0.00225675770188 0.00591949506844 0.0 0.0 0.0 0.0
78.046875 -0.108767064876 -0.109131769069 -0.00217300721817 0.00594067622459 0.0 0.0 0.0 0.0
78.0625 -0.108774918177 -0.109355065117 -0.00208912740051 0.00596076017873 0.0 0.0 0.0 0.0
78.078125 -0.108811728797 -0.109584288339 -0.00200512868014 0.00597973948947 0.0 0.0 0.0 0.0
78.09375 -0.108877749071 -0.109819377042 -0.00192102616462 0.00599762281855 0.0 0.0 0.0 0.0
78.109375 -0.108973198827 -0.110060168364 -0.0018368280422 0.00601440654339 0.0 0.0 0.0 0.0
78.125 -0.109098282407 -0.110306619725 -0.00175255066135 0.00603009325436 0.0 0.0 0.0 0.0
78.140625 -0.109253436755 -0.110558707663 -0.00166820538754 0.00604468717605 0.0 0.0 0.0 0.0
78.15625 -0.109438727857 -0.110816257389 -0.00158380290951 0.00605818415588 0.0 0.0 0.0 0.0
78.171875 -0.109654454475 -0.11107930402 -0.00149935761643 0.00607059055181 0.0 0.0 0.0 0.0
78.1875 -0.109900769715 -0.11134764996 -0.00141487989629 0.00608190812375 0.0 0.0 0.0 0.0
78.203125 -0.110177975351 -0.111621295566 -0.00133038274797 0.00609213524582 0.0 0.0 0.0 0.0
78.21875 -0.110486230493 -0.11190009984 -0.00124587740153 0.00610127363068 0.0 0.0 0.0 0.0
78.234375 -0.110825727299 -0.112183943574 -0.00116137718118 0.0061093274099 0.0 0.0 0.0 0.0
78.25 -0.11119673447 -0.112472833172 -0.00107689312776 0.00611629846211 0.0 0.0 0.0 0.0
78.265625 -0.111599439974 -0.112766667038 -0.000992436620308 0.0061221858862 0.0 0.0 0.0 0.0
78.28125 -0.112033914482 -0.113065244053 -0.000908021578986 0.00612699399818 0.0 0.0 0.0 0.0
78.296875 -0.112500333792 -0.113368458918 -0.000823656121604 0.00613072257158 0.0 0.0 0.0 0.0
78.3125 -0.112998955107 -0.113676353534 -0.00073935451238 0.00613337328501 0.0 0.0 0.0 0.0
78.328125 -0.1135297656 -0.11398867356 -0.00065512829158 0.00613495377663 0.0 0.0 0.0 0.0
78.34375 -0.114093249958 -0.114305594603 -0.000570990681145 0.00613545795153 0.0 0.0 0.0 0.0
