!SWISSto12 MCK measurement data
!name=Asphalt_58421130CI_19052022_1
!thickness[mm]=18.000
# GHz S RI R 50.0 
!freq ReS11 ImS11 ReS21 ImS21 ReS12 ImS12 ReS22 ImS22
75.0 -0.207408313109 0.123203686259 0.116135023514 0.21552081138 0.0 0.0 0.0 0.0
75.015625 -0.207226445164 0.123791352916 0.118835501663 0.213884552493 0.0 0.0 0.0 0.0
75.03125 -0.207028323624 0.124391986867 0.121513331796 0.212213786828 0.0 0.0 0.0 0.0
75.046875 -0.206813195977 0.125004786279 0.124168092053 0.210508776881 0.0 0.0 0.0 0.0
75.0625 -0.206578510973 0.125631390596 0.126799320628 0.208769909232 0.0 0.0 0.0 0.0
75.078125 -0.206326087206 0.126272842786 0.129406673543 0.206997476721 0.0 0.0 0.0 0.0
75.09375 -0.206056722448 0.126928853258 0.131989575535 0.205191859881 0.0 0.0 0.0 0.0
75.109375 -0.205770423387 0.127598901849 0.134547777794 0.203353433711 0.0 0.0 0.0 0.0
75.125 -0.205467154355 0.128282787378 0.137080712763 0.201482466846 0.0 0.0 0.0 0.0
75.140625 -0.205146981763 0.128980340478 0.139588056582 0.199579332732 0.0 0.0 0.0 0.0
75.15625 -0.20480971149 0.129691301029 0.14206937286 0.197644490372 0.0 0.0 0.0 0.0
75.171875 -0.204455444569 0.130415533602 0.144524302533 0.195678222825 0.0 0.0 0.0 0.0
75.1875 -0.204083973541 0.131152885681 0.146952413431 0.193680905909 0.0 0.0 0.0 0.0
75.203125 -0.203695435895 0.131903153433 0.149353306557 0.191653036096 0.0 0.0 0.0 0.0
75.21875 -0.203289599468 0.132666160781 0.151726620977 0.18959488877 0.0 0.0 0.0 0.0
75.234375 -0.20286647993 0.133441637358 0.154071959208 0.187506876679 0.0 0.0 0.0 0.0
75.25 -0.202426043632 0.134229625967 0.156388955582 0.185389397168 0.0 0.0 0.0 0.0
75.265625 -0.201968134539 0.135029814664 0.158677238286 0.183242862212 0.0 0.0 0.0 0.0
75.28125 -0.201492796616 0.135842020157 0.160936436562 0.181067657756 0.0 0.0 0.0 0.0
75.296875 -0.200999983346 0.136666093752 0.163166238556 0.178864233485 0.0 0.0 0.0 0.0
75.3125 -0.200489731075 0.137501901748 0.165366250781 0.176633015742 0.0 0.0 0.0 0.0
75.328125 -0.199961805321 0.138349181136 0.167536131266 0.174374320873 0.0 0.0 0.0 0.0
75.34375 -0.19941630538 0.139207697623 0.169675547694 0.172088684505 0.0 0.0 0.0 0.0
75.359375 -0.198853203185 0.140077443115 0.171784164731 0.169776472292 0.0 0.0 0.0 0.0
75.375 -0.198272365036 0.140957996466 0.173861616847 0.167438088867 0.0 0.0 0.0 0.0
75.390625 -0.197673932098 0.141849286106 0.175907640276 0.165074035376 0.0 0.0 0.0 0.0
75.40625 -0.197057730298 0.142751034342 0.177921872466 0.16268473608 0.0 0.0 0.0 0.0
75.421875 -0.19642388821 0.14366317887 0.179904076921 0.160270685469 0.0 0.0 0.0 0.0
75.4375 -0.195772206612 0.144585377527 0.181853838084 0.157832150812 0.0 0.0 0.0 0.0
75.453125 -0.195102836581 0.145517441037 0.183770978204 0.155369780102 0.0 0.0 0.0 0.0
75.46875 -0.194415646681 0.146459110767 0.185655121931 0.152883896432 0.0 0.0 0.0 0.0
75.484375 -0.193710685927 0.147410240207 0.187506080589 0.150375062631 0.0 0.0 0.0 0.0
75.5 -0.192987922495 0.148370477995 0.189323408312 0.147843669935 0.0 0.0 0.0 0.0
75.515625 -0.1922473095 0.149339579962 0.19110699053 0.145290169939 0.0 0.0 0.0 0.0
75.53125 -0.191488934501 0.150317301587 0.192856498457 0.142715084988 0.0 0.0 0.0 0.0
75.546875 -0.190712709381 0.151303362355 0.194571694529 0.140118785661 0.0 0.0 0.0 0.0
75.5625 -0.189918701528 0.152297456798 0.19625226697 0.137501844745 0.0 0.0 0.0 0.0
75.578125 -0.189106813537 0.153299102766 0.197898045762 0.134864697304 0.0 0.0 0.0 0.0
75.59375 -0.188276964453 0.154308012239 0.199508755773 0.132207800256 0.0 0.0 0.0 0.0
75.609375 -0.187428797274 0.155323558854 0.201084149947 0.129531629317 0.0 0.0 0.0 0.0
75.625 -0.186561454654 0.156345631785 0.202624060102 0.126836746211 0.0 0.0 0.0 0.0
75.640625 -0.185674637795 0.157375339485 0.204128205126 0.124123562145 0.0 0.0 0.0 0.0
75.65625 -0.184769148132 0.158412914843 0.205596301586 0.121392555417 0.0 0.0 0.0 0.0
75.671875 -0.183845552528 0.159458049099 0.207028278324 0.118644273171 0.0 0.0 0.0 0.0
75.6875 -0.182904049714 0.160510380248 0.20842393257 0.115879188196 0.0 0.0 0.0 0.0
75.703125 -0.181944759587 0.161569521242 0.209782983529 0.113097766344 0.0 0.0 0.0 0.0
75.71875 -0.180967819944 0.162635231049 0.211105336921 0.110300529797 0.0 0.0 0.0 0.0
75.734375 -0.179973320201 0.163707205532 0.212390729069 0.107487943517 0.0 0.0 0.0 0.0
75.75 -0.178961307489 0.164785190027 0.213638988834 0.104660538991 0.0 0.0 0.0 0.0
75.765625 -0.177931837078 0.165868805042 0.214850038274 0.101818792985 0.0 0.0 0.0 0.0
75.78125 -0.1768851093 0.166957872616 0.216023640305 0.0989632258255 0.0 0.0 0.0 0.0
75.796875 -0.175821090361 0.168052153978 0.217159631582 0.0960942799878 0.0 0.0 0.0 0.0
75.8125 -0.174739969904 0.169151332556 0.218257956143 0.0932125560667 0.0 0.0 0.0 0.0
75.828125 -0.173641753778 0.170255095743 0.219318383145 0.0903184888583 0.0 0.0 0.0 0.0
75.84375 -0.172526540974 0.171363267141 0.220340794784 0.0874125968278 0.0 0.0 0.0 0.0
75.859375 -0.171394468819 0.172475483257 0.221325086481 0.0844953841552 0.0 0.0 0.0 0.0
75.875 -0.170245667806 0.173591581879 0.222271144174 0.0815673995014 0.0 0.0 0.0 0.0
75.890625 -0.169080188215 0.174711183612 0.223178834851 0.0786291155357 0.0 0.0 0.0 0.0
75.90625 -0.167898088206 0.175834055235 0.224048047752 0.0756810378203 0.0 0.0 0.0 0.0
75.921875 -0.166699622787 0.176959890713 0.224878681341 0.0727236656284 0.0 0.0 0.0 0.0
75.9375 -0.16548482977 0.178088559296 0.225670646703 0.0697575669878 0.0 0.0 0.0 0.0
75.953125 -0.164253833435 0.179219597349 0.226423852923 0.0667831675314 0.0 0.0 0.0 0.0
75.96875 -0.163006812078 0.180352862861 0.227138263592 0.0638010922621 0.0 0.0 0.0 0.0
75.984375 -0.161743902604 0.181488004679 0.227813772452 0.0608117715721 0.0 0.0 0.0 0.0
76.0 -0.160465221888 0.182624697741 0.228450276153 0.0578157436198 0.0 0.0 0.0 0.0
76.015625 -0.159170867764 0.183762817447 0.229047773395 0.0548134906682 0.0 0.0 0.0 0.0
76.03125 -0.157861036431 0.184901911622 0.229606164825 0.0518055976601 0.0 0.0 0.0 0.0
76.046875 -0.156535854534 0.186041669355 0.230125426943 0.0487924696924 0.0 0.0 0.0 0.0
76.0625 -0.155195496901 0.187181990245 0.230605550786 0.0457747093655 0.0 0.0 0.0 0.0
76.078125 -0.153840050557 0.188322470625 0.231046425523 0.0427528209818 0.0 0.0 0.0 0.0
76.09375 -0.152469718302 0.189462691139 0.231448078683 0.039727307825 0.0 0.0 0.0 0.0
76.109375 -0.151084628178 0.190602474824 0.231810496124 0.0366986430506 0.0 0.0 0.0 0.0
76.125 -0.149684833508 0.191741369291 0.232133628448 0.0336673962858 0.0 0.0 0.0 0.0
76.140625 -0.148270475007 0.192879133635 0.232417452734 0.0306340129349 0.0 0.0 0.0 0.0
76.15625 -0.146841373129 0.194015374302 0.23266203441 0.0275990965253 0.0 0.0 0.0 0.0
76.171875 -0.145397564643 0.195150137003 0.232867338366 0.024563081908 0.0 0.0 0.0 0.0
76.1875 -0.143939043585 0.196283529493 0.233033427285 0.0215264968186 0.0 0.0 0.0 0.0
76.203125 -0.142466504201 0.197415478929 0.233160215924 0.0184898769431 0.0 0.0 0.0 0.0
76.21875 -0.140980223475 0.198545770609 0.233247835528 0.0154537277789 0.0 0.0 0.0 0.0
76.234375 -0.139480677887 0.199674029193 0.233296270688 0.0124185250197 0.0 0.0 0.0 0.0
76.25 -0.137968076882 0.200799954111 0.23330553589 0.00938476955372 0.0 0.0 0.0 0.0
76.265625 -0.13644271272 0.201923135567 0.233275676363 0.00635301049217 0.0 0.0 0.0 0.0
76.28125 -0.13490496452 0.203043379298 0.233206849223 0.0033237532277 0.0 0.0 0.0 0.0
76.296875 -0.133354987008 0.204160364607 0.233098962049 0.000297454123433 0.0 0.0 0.0 0.0
76.3125 -0.13179300168 0.205273960886 0.232952183998 -0.00272532392586 0.0 0.0 0.0 0.0
76.328125 -0.130219238383 0.206383692534 0.23276653734 -0.00574413823185 0.0 0.0 0.0 0.0
76.34375 -0.12863388568 0.207489345735 0.232542205492 -0.00875843631687 0.0 0.0 0.0 0.0
76.359375 -0.127037260741 0.208590606233 0.232279119839 -0.011767777259 0.0 0.0 0.0 0.0
76.375 -0.12542964665 0.209687101656 0.231977426853 -0.0147716110587 0.0 0.0 0.0 0.0
76.390625 -0.123811263393 0.210778667462 0.231637248142 -0.0177695001799 0.0 0.0 0.0 0.0
76.40625 -0.122182437271 0.211864870331 0.231258718007 -0.0207609058179 0.0 0.0 0.0 0.0
76.421875 -0.120543442983 0.212945539692 0.230841816975 -0.0237453777807 0.0 0.0 0.0 0.0
76.4375 -0.118894565818 0.214020326002 0.230386818422 -0.0267224067794 0.0 0.0 0.0 0.0
76.453125 -0.117236104639 0.215089101315 0.229893692991 -0.0296915060939 0.0 0.0 0.0 0.0
76.46875 -0.115568371929 0.216151284193 0.229362670397 -0.0326522150732 0.0 0.0 0.0 0.0
76.484375 -0.113891680672 0.217206798135 0.228793841655 -0.0356040091561 0.0 0.0 0.0 0.0
76.5 -0.112206217482 0.218255400394 0.228187370822 -0.0385464390651 0.0 0.0 0.0 0.0
76.515625 -0.110512414031 0.219296673657 0.227543353166 -0.0414790356234 0.0 0.0 0.0 0.0
76.53125 -0.108810566534 0.220330467816 0.226862000419 -0.0444012920303 0.0 0.0 0.0 0.0
76.546875 -0.107100990265 0.22135648508 0.226143443111 -0.0473127590765 0.0 0.0 0.0 0.0
76.5625 -0.10538403094 0.222374367404 0.225387801895 -0.050212937835 0.0 0.0 0.0 0.0
76.578125 -0.103659964312 0.22338386437 0.22459534139 -0.0531014131747 0.0 0.0 0.0 0.0
76.59375 -0.101929193534 0.224384679375 0.223766091797 -0.0559776821941 0.0 0.0 0.0 0.0
76.609375 -0.100191951588 0.225376607794 0.222900365622 -0.0588412896267 0.0 0.0 0.0 0.0
76.625 -0.0984486759595 0.226359247222 0.221998330013 -0.0616917636967 0.0 0.0 0.0 0.0
76.640625 -0.0966996802953 0.227332472469 0.221060096078 -0.0645286679576 0.0 0.0 0.0 0.0
76.65625 -0.0949453106098 0.22829589115 0.220085895506 -0.0673515317003 0.0 0.0 0.0 0.0
76.671875 -0.0931858351321 0.229249332981 0.219075983413 -0.0701599183659 0.0 0.0 0.0 0.0
76.6875 -0.0914217132383 0.230192385636 0.21803052143 -0.0729533720725 0.0 0.0 0.0 0.0
76.703125 -0.0896532429486 0.231124834035 0.216949682346 -0.0757314229718 0.0 0.0 0.0 0.0
76.71875 -0.0878807128901 0.232046331378 0.215833798653 -0.0784936983293 0.0 0.0 0.0 0.0
76.734375 -0.0861044590748 0.232956727804 0.214682966748 -0.0812396787734 0.0 0.0 0.0 0.0
76.75 -0.0843248371321 0.233855528834 0.213497478802 -0.0839689885335 0.0 0.0 0.0 0.0
76.765625 -0.0825419224072 0.234742699773 0.212277628601 -0.0866811258838 0.0 0.0 0.0 0.0
76.78125 -0.0807561595523 0.235618051111 0.211023502315 -0.0893757192658 0.0 0.0 0.0 0.0
76.796875 -0.0789677894516 0.236481504098 0.209735477364 -0.0920523605944 0.0 0.0 0.0 0.0
76.8125 -0.0771773666696 0.237332970625 0.208413758304 -0.094710554791 0.0 0.0 0.0 0.0
76.828125 -0.0753853381005 0.23817224048 0.207058633565 -0.0973499441064 0.0 0.0 0.0 0.0
76.84375 -0.0735920717766 0.238999054962 0.205670310499 -0.0999700591841 0.0 0.0 0.0 0.0
76.859375 -0.0717978577397 0.239813333003 0.204249111743 -0.102570553484 0.0 0.0 0.0 0.0
76.875 -0.0700033802115 0.240614427506 0.202795255816 -0.105150963438 0.0 0.0 0.0 0.0
76.890625 -0.0682090394168 0.241402337716 0.201309094704 -0.10771091088 0.0 0.0 0.0 0.0
76.90625 -0.0664152297536 0.242176788243 0.199790815518 -0.110249966995 0.0 0.0 0.0 0.0
76.921875 -0.0646224932498 0.24293750345 0.198240756843 -0.112767801756 0.0 0.0 0.0 0.0
76.9375 -0.0628311841322 0.243684385054 0.196659221981 -0.115263955704 0.0 0.0 0.0 0.0
76.953125 -0.0610418871488 0.244416857432 0.195046453978 -0.117738039046 0.0 0.0 0.0 0.0
76.96875 -0.0592549202628 0.245135166498 0.193402878673 -0.120189755824 0.0 0.0 0.0 0.0
76.984375 -0.0574707270371 0.245838793771 0.19172866022 -0.122618626099 0.0 0.0 0.0 0.0
77.0 -0.0556898163384 0.246527586873 0.190024169092 -0.125024323201 0.0 0.0 0.0 0.0
77.015625 -0.0539125284325 0.247201384969 0.188289690593 -0.127406477804 0.0 0.0 0.0 0.0
77.03125 -0.0521395080001 0.247859969415 0.186525623407 -0.129764697642 0.0 0.0 0.0 0.0
77.046875 -0.050371117643 0.248503052021 0.184732164718 -0.132098673884 0.0 0.0 0.0 0.0
77.0625 -0.0486078187938 0.249130445409 0.182909757214 -0.134407974199 0.0 0.0 0.0 0.0
77.078125 -0.0468500429569 0.249741948453 0.181058682462 -0.136692276322 0.0 0.0 0.0 0.0
77.09375 -0.0450982699195 0.250337586206 0.179179262939 -0.138951250994 0.0 0.0 0.0 0.0
77.109375 -0.0433529820354 0.250916796258 0.177271881309 -0.141184540858 0.0 0.0 0.0 0.0
77.125 -0.041614734017 0.251479552272 0.175336857533 -0.143391759654 0.0 0.0 0.0 0.0
77.140625 -0.0398838013546 0.252025570498 0.173374497612 -0.145572664732 0.0 0.0 0.0 0.0
77.15625 -0.0381608182477 0.252554827222 0.171385244486 -0.14772685574 0.0 0.0 0.0 0.0
77.171875 -0.0364462022971 0.253066973404 0.169369392744 -0.149854005192 0.0 0.0 0.0 0.0
77.1875 -0.0347403722405 0.253561835802 0.167327286047 -0.151953848181 0.0 0.0 0.0 0.0
77.203125 -0.0330438431873 0.254039404384 0.165259381721 -0.154026002408 0.0 0.0 0.0 0.0
77.21875 -0.0313571761135 0.254499189283 0.163165937166 -0.156070167958 0.0 0.0 0.0 0.0
77.234375 -0.0296806766526 0.254941334994 0.161047431625 -0.158086068894 0.0 0.0 0.0 0.0
77.25 -0.0280149914406 0.25536535469 0.158904138594 -0.16007340114 0.0 0.0 0.0 0.0
77.265625 -0.0263604171856 0.255771233913 0.156736466985 -0.162031801872 0.0 0.0 0.0 0.0
77.28125 -0.0247175671721 0.256159014142 0.154544868721 -0.163961084604 0.0 0.0 0.0 0.0
77.296875 -0.0230867923698 0.256528117031 0.152329631564 -0.165860850453 0.0 0.0 0.0 0.0
77.3125 -0.0214686848367 0.256878599255 0.15009122274 -0.167730913308 0.0 0.0 0.0 0.0
77.328125 -0.0198636523189 0.257210369911 0.147829977672 -0.169570946846 0.0 0.0 0.0 0.0
77.34375 -0.0182720875859 0.257523086995 0.145546342659 -0.171380634979 0.0 0.0 0.0 0.0
77.359375 -0.0166944922711 0.25781688752 0.143240716869 -0.17315984081 0.0 0.0 0.0 0.0
77.375 -0.0151312666186 0.258091408608 0.14091343043 -0.174908136504 0.0 0.0 0.0 0.0
77.390625 -0.0135830441823 0.258346619185 0.13856493725 -0.17662538419 0.0 0.0 0.0 0.0
77.40625 -0.0120501869307 0.258582566451 0.136195684316 -0.178311301015 0.0 0.0 0.0 0.0
77.421875 -0.0105332850519 0.258799005818 0.133806019014 -0.179965596718 0.0 0.0 0.0 0.0
77.4375 -0.00903269599686 0.258995793307 0.131396380554 -0.181588102714 0.0 0.0 0.0 0.0
77.453125 -0.00754905833052 0.259172863823 0.128967211385 -0.183178533401 0.0 0.0 0.0 0.0
77.46875 -0.00608290664282 0.259330105882 0.126518900825 -0.184736709491 0.0 0.0 0.0 0.0
77.484375 -0.00463457433667 0.259467673615 0.124051896588 -0.186262327906 0.0 0.0 0.0 0.0
77.5 -0.00320469146524 0.259584949109 0.12156660459 -0.187755182272 0.0 0.0 0.0 0.0
77.515625 -0.00179363010377 0.259682264097 0.119063445188 -0.189215062626 0.0 0.0 0.0 0.0
77.53125 -0.000401959495619 0.259759239241 0.116542942898 -0.190641816728 0.0 0.0 0.0 0.0
77.546875 0.000969954427989 0.259815956601 0.114005380898 -0.192035188666 0.0 0.0 0.0 0.0
77.5625 0.00232154045003 0.259852273618 0.11145135043 -0.193395028915 0.0 0.0 0.0 0.0
77.578125 0.0036523652096 0.259868023142 0.108881243657 -0.194721059759 0.0 0.0 0.0 0.0
77.59375 0.00496189407763 0.259863185663 0.106295436792 -0.19601321421 0.0 0.0 0.0 0.0
77.609375 0.00624976790126 0.259837714037 0.103694415932 -0.197271229199 0.0 0.0 0.0 0.0
77.625 0.00751538418389 0.25979142704 0.101078653713 -0.198494942117 0.0 0.0 0.0 0.0
77.640625 0.00875839197244 0.259724398254 0.0984485442264 -0.199684236776 0.0 0.0 0.0 0.0
77.65625 0.00997820097018 0.259636626361 0.0958045829768 -0.200838869887 0.0 0.0 0.0 0.0
77.671875 0.0111743925689 0.259527965972 0.0931471776877 -0.201958757273 0.0 0.0 0.0 0.0
77.6875 0.0123465243811 0.259398446968 0.090476835903 -0.203043719286 0.0 0.0 0.0 0.0
77.703125 0.0134940058896 0.259247796281 0.0877939400898 -0.204093586957 0.0 0.0 0.0 0.0
77.71875 0.0146164808238 0.259076190343 0.085099031626 -0.20510826075 0.0 0.0 0.0 0.0
77.734375 0.0157134507016 0.258883587705 0.0823924869754 -0.206087559393 0.0 0.0 0.0 0.0
77.75 0.0167844234078 0.258669950873 0.0796748131164 -0.207031385233 0.0 0.0 0.0 0.0
77.765625 0.017828976684 0.258435156279 0.0769464635813 -0.207939590621 0.0 0.0 0.0 0.0
77.78125 0.0188466054435 0.258179289189 0.0742078714678 -0.208812144984 0.0 0.0 0.0 0.0
77.796875 0.0198368957311 0.257902147343 0.0714595513291 -0.209648813228 0.0 0.0 0.0 0.0
77.8125 0.0207993888859 0.257603763328 0.0687019097804 -0.210449585852 0.0 0.0 0.0 0.0
77.828125 0.021733682363 0.257284311011 0.0659354894899 -0.211214310567 0.0 0.0 0.0 0.0
77.84375 0.0226392801182 0.256943548595 0.0631607093942 -0.211942933794 0.0 0.0 0.0 0.0
77.859375 0.0235159027845 0.256581645661 0.0603780241766 -0.212635319235 0.0 0.0 0.0 0.0
77.875 0.0243629022338 0.25619838195 0.0575879456026 -0.213291422038 0.0 0.0 0.0 0.0
77.890625 0.0251800559632 0.255793928057 0.0547909091683 -0.213911149606 0.0 0.0 0.0 0.0
77.90625 0.0259668257746 0.255368260191 0.0519873863178 -0.214494430276 0.0 0.0 0.0 0.0
77.921875 0.0267228958137 0.254921393035 0.0491778546044 -0.215041222063 0.0 0.0 0.0 0.0
77.9375 0.0274478213054 0.254453300785 0.0463627858909 -0.215551465636 0.0 0.0 0.0 0.0
77.953125 0.0281412202578 0.253964095862 0.0435427005607 -0.216025048682 0.0 0.0 0.0 0.0
77.96875 0.0288026975433 0.253453641048 0.0407180250078 -0.216461984349 0.0 0.0 0.0 0.0
77.984375 0.0294319036114 0.252922079407 0.0378892696899 -0.216862274106 0.0 0.0 0.0 0.0
78.0 0.0300284284262 0.252369478913 0.0350568910708 -0.217225788903 0.0 0.0 0.0 0.0
78.015625 0.030592059831 0.251795718274 0.0322213176296 -0.217552580924 0.0 0.0 0.0 0.0
78.03125 0.0311222667122 0.251201278086 0.029383115748 -0.21784266236 0.0 0.0 0.0 0.0
78.046875 0.0316187808702 0.250585852351 0.0265426842265 -0.218095906273 0.0 0.0 0.0 0.0
78.0625 0.0320811717461 0.249949606568 0.0237005358506 -0.218312370508 0.0 0.0 0.0 0.0
78.078125 0.0325091621706 0.249292688511 0.0208571146322 -0.21849205438 0.0 0.0 0.0 0.0
78.09375 0.0329023369064 0.248615070593 0.0180129516701 -0.218634954535 0.0 0.0 0.0 0.0
78.109375 0.0332604145945 0.247917070992 0.0151684614458 -0.218741084774 0.0 0.0 0.0 0.0
78.125 0.0335830259742 0.247198687022 0.0123241440645 -0.218810432951 0.0 0.0 0.0 0.0
78.140625 0.033869688403 0.246459906515 0.00948044640374 -0.218843093098 0.0 0.0 0.0 0.0
78.15625 0.0341201907716 0.245700820369 0.00663786356621 -0.218838969776 0.0 0.0 0.0 0.0
78.171875 0.034334127141 0.244921629079 0.00379690092839 -0.218798239378 0.0 0.0 0.0 0.0
78.1875 0.0345113259507 0.244122363156 0.000957967387486 -0.218720869929 0.0 0.0 0.0 0.0
78.203125 0.0346513869434 0.243303140209 -0.00187843812069 -0.218606881258 0.0 0.0 0.0 0.0
78.21875 0.0347539691572 0.242464069413 -0.00471181884082 -0.218456420682 0.0 0.0 0.0 0.0
78.234375 0.0348188307573 0.241605299209 -0.00754173462895 -0.218269424995 0.0 0.0 0.0 0.0
78.25 0.0348455772763 0.240726863137 -0.0103677211865 -0.218046052711 0.0 0.0 0.0 0.0
78.265625 0.0348341299093 0.239828963738 -0.0131892839488 -0.217786350062 0.0 0.0 0.0 0.0
78.28125 0.0347841344821 0.238911732082 -0.0160059862765 -0.217490366534 0.0 0.0 0.0 0.0
78.296875 0.0346954301053 0.237975294826 -0.0188173376049 -0.217158208844 0.0 0.0 0.0 0.0
78.3125 0.0345676209977 0.237019729086 -0.0216229053963 -0.216789961364 0.0 0.0 0.0 0.0
78.328125 0.0344006657559 0.236045321677 -0.0244222006073 -0.216385719337 0.0 0.0 0.0 0.0
78.34375 0.0341940547206 0.235051786757 -0.0272147615774 -0.215945557978 0.0 0.0 0.0 0.0
78.359375 0.033947859634 0.234039726442 -0.0300001367872 -0.215469629501 0.0 0.0 0.0 0.0
78.375 0.0336617390825 0.233009081849 -0.0327778893496 -0.214957969105 0.0 0.0 0.0 0.0
78.390625 0.0333354837243 0.231960004651 -0.0355475139221 -0.214410748878 0.0 0.0 0.0 0.0
78.40625 0.0329689071966 0.230892763299 -0.0383085626337 -0.213828115451 0.0 0.0 0.0 0.0
78.421875 0.0325618771351 0.229807297008 -0.0410606383902 -0.213210163138 0.0 0.0 0.0 0.0
78.4375 0.0321141860377 0.228704060458 -0.043803230846 -0.212557012612 0.0 0.0 0.0 0.0
78.453125 0.0316256441577 0.227582900841 -0.0465359079495 -0.21186887408 0.0 0.0 0.0 0.0
78.46875 0.0310960840214 0.226444186385 -0.0492581772681 -0.211145806731 0.0 0.0 0.0 0.0
78.484375 0.0305254731754 0.225288070231 -0.0519697018106 -0.210388035202 0.0 0.0 0.0 0.0
78.5 0.0299136048214 0.224114686894 -0.0546699008532 -0.20959562787 0.0 0.0 0.0 0.0
78.515625 0.0292603574512 0.222924240353 -0.0573584896689 -0.20876888014 0.0 0.0 0.0 0.0
78.53125 0.0285656571117 0.221716955956 -0.0600349193962 -0.207907866645 0.0 0.0 0.0 0.0
