!SWISSto12 MCK measurement data
!name=Asphalt_LPD1421LV_19052022_1
!thickness[mm]=18.000
# GHz S RI R 50.0 
!freq ReS11 ImS11 ReS21 ImS21 ReS12 ImS12 ReS22 ImS22
75.0 -0.225371797419 0.164273772476 -0.000910420350365 -0.00867104523411 0.0 0.0 0.0 0.0
75.015625 -0.224756633888 0.16463374015 -0.00103903797637 -0.00864397670648 0.0 0.0 0.0 0.0
75.03125 -0.224128476751 0.165002969975 -0.0011671276742 -0.00861500324611 0.0 0.0 0.0 0.0
75.046875 -0.223486789589 0.165380781999 -0.00129466091253 -0.00858413346211 0.0 0.0 0.0 0.0
75.0625 -0.222829138938 0.165768692767 -0.00142160524321 -0.00855137321158 0.0 0.0 0.0 0.0
75.078125 -0.222157625989 0.166167706036 -0.00154793067548 -0.00851673632252 0.0 0.0 0.0 0.0
75.09375 -0.221472755731 0.166577540312 -0.0016736042874 -0.00848022617831 0.0 0.0 0.0 0.0
75.109375 -0.220774728847 0.166997712304 -0.00179859530016 -0.00844185804685 0.0 0.0 0.0 0.0
75.125 -0.22006364526 0.167428125094 -0.001922873932 -0.00840163986597 0.0 0.0 0.0 0.0
75.140625 -0.219339419304 0.167868470786 -0.00204640815561 -0.00835958068291 0.0 0.0 0.0 0.0
75.15625 -0.21860212621 0.168318678187 -0.0021691688419 -0.00831570120083 0.0 0.0 0.0 0.0
75.171875 -0.217851834345 0.168778531904 -0.00229112133446 -0.00827000866578 0.0 0.0 0.0 0.0
75.1875 -0.217088393294 0.169247947767 -0.00241223741699 -0.0082225132305 0.0 0.0 0.0 0.0
75.203125 -0.216311975742 0.169726766257 -0.00253248893301 -0.00817323340254 0.0 0.0 0.0 0.0
75.21875 -0.215522531128 0.170214816364 -0.00265184156692 -0.00812218242161 0.0 0.0 0.0 0.0
75.234375 -0.214720054469 0.170711914749 -0.00277026456882 -0.00806937721081 0.0 0.0 0.0 0.0
75.25 -0.21390450719 0.171218013528 -0.00288773056158 -0.0080148302883 0.0 0.0 0.0 0.0
75.265625 -0.213075939791 0.171732948429 -0.00300421063184 -0.00795856325688 0.0 0.0 0.0 0.0
75.28125 -0.212234354875 0.172256516235 -0.00311967130673 -0.00790058826519 0.0 0.0 0.0 0.0
75.296875 -0.211379789842 0.17278865844 -0.00323408550543 -0.0078409278285 0.0 0.0 0.0 0.0
75.3125 -0.210512302428 0.173329192685 -0.00334742942117 -0.0077795997189 0.0 0.0 0.0 0.0
75.328125 -0.209631776326 0.173877910173 -0.0034596682658 -0.0077166189272 0.0 0.0 0.0 0.0
75.34375 -0.208738383301 0.174434627136 -0.00357077674616 -0.00765201346752 0.0 0.0 0.0 0.0
75.359375 -0.207831969263 0.17499936071 -0.00368072639 -0.00758579310103 0.0 0.0 0.0 0.0
75.375 -0.206912715488 0.175571770585 -0.00378948814162 -0.00751798503085 0.0 0.0 0.0 0.0
75.390625 -0.205980557722 0.176151806539 -0.00389703600355 -0.00744861174386 0.0 0.0 0.0 0.0
75.40625 -0.205035583273 0.176739191137 -0.00400334368096 -0.00737769245873 0.0 0.0 0.0 0.0
75.421875 -0.204077826552 0.177333935018 -0.00410838486342 -0.00730525556322 0.0 0.0 0.0 0.0
75.4375 -0.203107203037 0.177935683454 -0.0042121370838 -0.00723131969023 0.0 0.0 0.0 0.0
75.453125 -0.202123919233 0.178544334788 -0.00431457422525 -0.00715591044396 0.0 0.0 0.0 0.0
75.46875 -0.201127840294 0.179159679875 -0.00441567072071 -0.00707904971508 0.0 0.0 0.0 0.0
75.484375 -0.200119089461 0.179781617314 -0.00451540148047 -0.00700076425779 0.0 0.0 0.0 0.0
75.5 -0.199097684555 0.180409808242 -0.00461374573363 -0.00692107891351 0.0 0.0 0.0 0.0
75.515625 -0.198063626244 0.181044065746 -0.00471067862766 -0.00684002198132 0.0 0.0 0.0 0.0
75.53125 -0.197016994286 0.181684202427 -0.00480617569605 -0.0067576180789 0.0 0.0 0.0 0.0
75.546875 -0.195957784309 0.182329905116 -0.00490021863573 -0.00667389273861 0.0 0.0 0.0 0.0
75.5625 -0.194886052074 0.182981012604 -0.00499278433401 -0.00658887571913 0.0 0.0 0.0 0.0
75.578125 -0.193801801107 0.183637119267 -0.00508385387475 -0.0065025945917 0.0 0.0 0.0 0.0
75.59375 -0.192704977283 0.184297883928 -0.00517340662868 -0.00641507441927 0.0 0.0 0.0 0.0
75.609375 -0.191595224122 0.184962817439 -0.00526141794812 -0.00632634910087 0.0 0.0 0.0 0.0
75.625 -0.190471801824 0.185631909173 -0.0053478741078 -0.00623644464617 0.0 0.0 0.0 0.0
75.640625 -0.189334434414 0.186306283056 -0.00543275597717 -0.00614539708213 0.0 0.0 0.0 0.0
75.65625 -0.188184053648 0.186986057605 -0.00551604221205 -0.0060532262869 0.0 0.0 0.0 0.0
75.671875 -0.187021180607 0.187671066316 -0.00559772064845 -0.00595996884593 0.0 0.0 0.0 0.0
75.6875 -0.185845988799 0.188360879055 -0.00567777824795 -0.00586565315378 0.0 0.0 0.0 0.0
75.703125 -0.184658680887 0.189055247437 -0.00575619434504 -0.00577030572914 0.0 0.0 0.0 0.0
75.71875 -0.183459433932 0.189753951467 -0.00583295593683 -0.00567396678508 0.0 0.0 0.0 0.0
75.734375 -0.182248182783 0.19045672528 -0.00590804788508 -0.00557666455372 0.0 0.0 0.0 0.0
75.75 -0.18102526067 0.191163363909 -0.00598145699811 -0.0054784260093 0.0 0.0 0.0 0.0
75.765625 -0.179790603167 0.191873605043 -0.00605317292705 -0.00537928632414 0.0 0.0 0.0 0.0
75.78125 -0.178544419718 0.192587247407 -0.00612318208517 -0.0052792800244 0.0 0.0 0.0 0.0
75.796875 -0.17728672511 0.193304115478 -0.00619146904624 -0.00517843405971 0.0 0.0 0.0 0.0
75.8125 -0.176017740226 0.194023924194 -0.00625803387376 -0.0050767853235 0.0 0.0 0.0 0.0
75.828125 -0.174737505868 0.194746478993 -0.00632286374568 -0.00497436482503 0.0 0.0 0.0 0.0
75.84375 -0.173446107854 0.195471584675 -0.00638594516632 -0.0048712056018 0.0 0.0 0.0 0.0
75.859375 -0.172143653451 0.196198914693 -0.00644727358591 -0.00476734182227 0.0 0.0 0.0 0.0
75.875 -0.170830335285 0.196928452941 -0.00650684196391 -0.00466279995698 0.0 0.0 0.0 0.0
75.890625 -0.169506255058 0.197659846717 -0.00656464857315 -0.00455761781978 0.0 0.0 0.0 0.0
75.90625 -0.168171515263 0.198392823892 -0.00662067981216 -0.00445182688104 0.0 0.0 0.0 0.0
75.921875 -0.166826240413 0.19912724729 -0.00667493384716 -0.00434546127694 0.0 0.0 0.0 0.0
75.9375 -0.16547061174 0.199862971609 -0.00672740661427 -0.00423855308488 0.0 0.0 0.0 0.0
75.953125 -0.164104664318 0.200599570019 -0.0067780968752 -0.00413113074828 0.0 0.0 0.0 0.0
75.96875 -0.162728698287 0.201336993472 -0.00682699949875 -0.00402322984149 0.0 0.0 0.0 0.0
75.984375 -0.161342756815 0.202074965838 -0.00687411530723 -0.00391488405338 0.0 0.0 0.0 0.0
76.0 -0.159947015354 0.202813183001 -0.00691944278073 -0.00380612514668 0.0 0.0 0.0 0.0
76.015625 -0.158541572732 0.203551551677 -0.00696297991969 -0.0036969794755 0.0 0.0 0.0 0.0
76.03125 -0.157126647372 0.204289744981 -0.0070047294747 -0.00358748746224 0.0 0.0 0.0 0.0
76.046875 -0.15570234846 0.205027492697 -0.00704468662241 -0.00347767556231 0.0 0.0 0.0 0.0
76.0625 -0.154268787103 0.205764670057 -0.00708286022056 -0.0033675744894 0.0 0.0 0.0 0.0
76.078125 -0.152826221774 0.206501010675 -0.00711924676701 -0.00325721765952 0.0 0.0 0.0 0.0
76.09375 -0.15137472775 0.207236146796 -0.0071538514776 -0.00314663757698 0.0 0.0 0.0 0.0
76.109375 -0.149914385145 0.207969888132 -0.00718667786091 -0.00303586315515 0.0 0.0 0.0 0.0
76.125 -0.148445405195 0.20870202378 -0.00721772988082 -0.00292492311227 0.0 0.0 0.0 0.0
76.140625 -0.146967815591 0.209432204208 -0.00724701438435 -0.00281384913128 0.0 0.0 0.0 0.0
76.15625 -0.145481563822 0.210160107343 -0.00727453243909 -0.00270267014728 0.0 0.0 0.0 0.0
76.171875 -0.143986529325 0.210885936463 -0.00730029203124 -0.0025914173772 0.0 0.0 0.0 0.0
76.1875 -0.142482925011 0.211609728559 -0.00732430438193 -0.00248011383974 0.0 0.0 0.0 0.0
76.203125 -0.14097120592 0.212331529897 -0.00734657317402 -0.0023687947073 0.0 0.0 0.0 0.0
76.21875 -0.139451840419 0.213051118526 -0.00736710274535 -0.00225748420633 0.0 0.0 0.0 0.0
76.234375 -0.137925120801 0.213768167499 -0.00738590684587 -0.00214621128458 0.0 0.0 0.0 0.0
76.25 -0.136391346213 0.214482457008 -0.00740298993355 -0.00203500156612 0.0 0.0 0.0 0.0
76.265625 -0.134850729095 0.215193634548 -0.00741836282944 -0.00192388427967 0.0 0.0 0.0 0.0
76.28125 -0.133303648505 0.215901550483 -0.00743203966264 -0.00181289098716 0.0 0.0 0.0 0.0
76.296875 -0.131750324965 0.216605967326 -0.0074440206801 -0.0017020409503 0.0 0.0 0.0 0.0
76.3125 -0.130190895112 0.217306804311 -0.00745432414374 -0.00159136584876 0.0 0.0 0.0 0.0
76.328125 -0.128625557231 0.218003625775 -0.00746296437718 -0.00148088528123 0.0 0.0 0.0 0.0
76.34375 -0.127054540513 0.218696375978 -0.00746994367543 -0.0013706284747 0.0 0.0 0.0 0.0
76.359375 -0.125478023802 0.219384682476 -0.00747528014664 -0.00126061504771 0.0 0.0 0.0 0.0
76.375 -0.123896406173 0.220068282353 -0.00747898707834 -0.00115087338028 0.0 0.0 0.0 0.0
76.390625 -0.122309839931 0.220747095476 -0.00748107257673 -0.00104142448339 0.0 0.0 0.0 0.0
76.40625 -0.120718609015 0.221420690978 -0.00748155430003 -0.000932294475805 0.0 0.0 0.0 0.0
76.421875 -0.119122929036 0.222089034485 -0.00748044090809 -0.00082350372474 0.0 0.0 0.0 0.0
76.4375 -0.117523135928 0.222751752545 -0.00747775090298 -0.000715075422318 0.0 0.0 0.0 0.0
76.453125 -0.115919439838 0.223408769653 -0.00747349617331 -0.000607035524499 0.0 0.0 0.0 0.0
76.46875 -0.114312192154 0.224059665659 -0.00746768977639 -0.000499399727093 0.0 0.0 0.0 0.0
76.484375 -0.112701576589 0.22470427473 -0.00746034776106 -0.00039218758327 0.0 0.0 0.0 0.0
76.5 -0.111087865702 0.225342609774 -0.007451486157 -0.000285422130278 0.0 0.0 0.0 0.0
76.515625 -0.109471415031 0.225974098848 -0.00744111490038 -0.000179121781242 0.0 0.0 0.0 0.0
76.53125 -0.107852442423 0.226598833434 -0.00742925710874 -7.33069468949e-05 0.0 0.0 0.0 0.0
76.546875 -0.106231286576 0.227216427067 -0.00741591978433 3.20027567848e-05 0.0 0.0 0.0 0.0
76.5625 -0.104608338172 0.227826635447 -0.00740112316828 0.000136789863884 0.0 0.0 0.0 0.0
76.578125 -0.102983708705 0.228429323717 -0.00738488107056 0.00024103735736 0.0 0.0 0.0 0.0
76.59375 -0.101357704493 0.229024215358 -0.00736721063658 0.000344728660963 0.0 0.0 0.0 0.0
76.609375 -0.0997307745543 0.229611103536 -0.00734812608515 0.00044784355546 0.0 0.0 0.0 0.0
76.625 -0.0981031046136 0.230189758859 -0.00732764823043 0.00055036458325 0.0 0.0 0.0 0.0
76.640625 -0.0964750213708 0.230760019818 -0.00730579106146 0.000652280216113 0.0 0.0 0.0 0.0
76.65625 -0.0948468654334 0.231321581364 -0.00728256242508 0.000753574616803 0.0 0.0 0.0 0.0
76.671875 -0.0932189134978 0.23187432466 -0.00725799012911 0.000854228320201 0.0 0.0 0.0 0.0
76.6875 -0.0915915193117 0.232417961544 -0.00723208846781 0.000954228948496 0.0 0.0 0.0 0.0
76.703125 -0.0899648797923 0.232952247528 -0.00720487167867 0.00105356436619 0.0 0.0 0.0 0.0
76.71875 -0.0883393526167 0.233476972835 -0.0071763510961 0.00115222025576 0.0 0.0 0.0 0.0
76.734375 -0.0867151865083 0.233992008624 -0.00714655517616 0.00125017752081 0.0 0.0 0.0 0.0
76.75 -0.0850926658782 0.234496929122 -0.00711549063585 0.00134743164444 0.0 0.0 0.0 0.0
76.765625 -0.0834719432767 0.234991802767 -0.00708317933459 0.00144396530117 0.0 0.0 0.0 0.0
76.78125 -0.0818532686292 0.235476376758 -0.00704963283422 0.00153976546114 0.0 0.0 0.0 0.0
76.796875 -0.0802369914846 0.23595077745 -0.00701487114946 0.00163482506408 0.0 0.0 0.0 0.0
76.8125 -0.0786235384936 0.236414853054 -0.00697890969974 0.00172912859729 0.0 0.0 0.0 0.0
76.828125 -0.0770133350212 0.236868550293 -0.00694176314676 0.00182266455889 0.0 0.0 0.0 0.0
76.84375 -0.0754066477517 0.237311647511 -0.00690344868271 0.00191542436203 0.0 0.0 0.0 0.0
76.859375 -0.0738037829157 0.237744033275 -0.00686398387364 0.00200739794326 0.0 0.0 0.0 0.0
76.875 -0.072205391848 0.238165242413 -0.00682338377866 0.0020985728855 0.0 0.0 0.0 0.0
76.890625 -0.0706116765342 0.238575247561 -0.00678166775855 0.0021889443764 0.0 0.0 0.0 0.0
76.90625 -0.069023097243 0.23897383707 -0.00673884541566 0.00227849686376 0.0 0.0 0.0 0.0
76.921875 -0.0674401284217 0.239360835897 -0.0066949365546 0.00236722429175 0.0 0.0 0.0 0.0
76.9375 -0.0658630196565 0.239736114504 -0.00664995845196 0.00245511822773 0.0 0.0 0.0 0.0
76.953125 -0.064292313618 0.240099216342 -0.00660392181027 0.00254217012035 0.0 0.0 0.0 0.0
76.96875 -0.0627282510298 0.240450455947 -0.00655685022171 0.00262837253815 0.0 0.0 0.0 0.0
76.984375 -0.0611713269583 0.240789296944 -0.00650875280616 0.00271371278628 0.0 0.0 0.0 0.0
77.0 -0.05962183519 0.241115716686 -0.00645964653999 0.0027981916286 0.0 0.0 0.0 0.0
77.015625 -0.0580802839102 0.241429590216 -0.00640954681751 0.00288179732483 0.0 0.0 0.0 0.0
77.03125 -0.056546955377 0.241730688772 -0.00635846839379 0.00296452011225 0.0 0.0 0.0 0.0
77.046875 -0.0550223627006 0.242018877028 -0.00630642641782 0.00304635683484 0.0 0.0 0.0 0.0
77.0625 -0.0535067801347 0.242293999771 -0.00625343549359 0.0031272981696 0.0 0.0 0.0 0.0
77.078125 -0.0520007779485 0.242555843452 -0.00619951129269 0.00320733972686 0.0 0.0 0.0 0.0
77.09375 -0.0505044976718 0.242804546514 -0.00614466657352 0.00328647591778 0.0 0.0 0.0 0.0
77.109375 -0.0490185485483 0.24303956968 -0.00608891933818 0.00336469786386 0.0 0.0 0.0 0.0
77.125 -0.0475432861923 0.243260909585 -0.00603228395284 0.00344200352133 0.0 0.0 0.0 0.0
77.140625 -0.046079074561 0.243468428277 -0.00597477110593 0.0035183847355 0.0 0.0 0.0 0.0
77.15625 -0.0446263664414 0.243662088416 -0.00591639510444 0.00359383336326 0.0 0.0 0.0 0.0
77.171875 -0.0431855222512 0.243841517669 -0.00585717251127 0.0036683493683 0.0 0.0 0.0 0.0
77.1875 -0.0417569203415 0.244006788944 -0.00579711383762 0.0037419249668 0.0 0.0 0.0 0.0
77.203125 -0.0403410090626 0.244157803299 -0.00573623571596 0.00381455419991 0.0 0.0 0.0 0.0
77.21875 -0.0389382773016 0.244294077574 -0.00567455014646 0.00388623274619 0.0 0.0 0.0 0.0
77.234375 -0.03754894182 0.244415894552 -0.00561207358496 0.00395695509157 0.0 0.0 0.0 0.0
77.25 -0.0361735781464 0.244522852805 -0.00554881324737 0.00402671840831 0.0 0.0 0.0 0.0
77.265625 -0.0348123853458 0.24461488951 -0.00548478537961 0.00409551741569 0.0 0.0 0.0 0.0
77.28125 -0.0334659520128 0.244692108518 -0.00542000615044 0.00416334713609 0.0 0.0 0.0 0.0
77.296875 -0.0321346198699 0.244754025805 -0.00535448478777 0.00423020673549 0.0 0.0 0.0 0.0
77.3125 -0.0308187432529 0.244800707632 -0.00528823366521 0.00429608634739 0.0 0.0 0.0 0.0
77.328125 -0.0295186877716 0.244832058608 -0.00522126647773 0.00436098423701 0.0 0.0 0.0 0.0
77.34375 -0.0282349445799 0.2448479186 -0.00515359334779 0.00442489355443 0.0 0.0 0.0 0.0
77.359375 -0.0269677579792 0.244848270446 -0.00508522879096 0.00448781605918 0.0 0.0 0.0 0.0
77.375 -0.0257175320224 0.244833054198 -0.00501618636352 0.00454974100547 0.0 0.0 0.0 0.0
77.390625 -0.0244847848498 0.244802040105 -0.00494647782691 0.00461067314862 0.0 0.0 0.0 0.0
77.40625 -0.0232697873225 0.244755490227 -0.0048761136477 0.00467059660244 0.0 0.0 0.0 0.0
77.421875 -0.0220731112598 0.24469307088 -0.00480510662031 0.00472951489799 0.0 0.0 0.0 0.0
77.4375 -0.0208950644119 0.244614777043 -0.00473346873745 0.00478742364543 0.0 0.0 0.0 0.0
77.453125 -0.0197361435849 0.244520536287 -0.00466120991469 0.00484431640884 0.0 0.0 0.0 0.0
77.46875 -0.0185968073857 0.244410230715 -0.0045883441971 0.00490019103808 0.0 0.0 0.0 0.0
77.484375 -0.0174772801127 0.244284141549 -0.00451488150897 0.00495504120773 0.0 0.0 0.0 0.0
77.5 -0.0163781707083 0.244141580581 -0.00444083639497 0.00500886835626 0.0 0.0 0.0 0.0
77.515625 -0.0152997733274 0.24398296515 -0.0043662161657 0.00506166066508 0.0 0.0 0.0 0.0
77.53125 -0.0142425627642 0.243808083424 -0.00429103850458 0.00511342080974 0.0 0.0 0.0 0.0
77.546875 -0.0132067578553 0.243616823106 -0.00421531141933 0.00516414047009 0.0 0.0 0.0 0.0
77.5625 -0.0121928766911 0.243409244849 -0.00413904583868 0.00521382029324 0.0 0.0 0.0 0.0
77.578125 -0.0112013552358 0.243185176579 -0.00406225377075 0.00526245251098 0.0 0.0 0.0 0.0
77.59375 -0.0102324707476 0.242944590556 -0.00398494634156 0.00531003391562 0.0 0.0 0.0 0.0
77.609375 -0.00928669087577 0.242687479167 -0.00390713149414 0.00535656001465 0.0 0.0 0.0 0.0
77.625 -0.00836434343862 0.242413709841 -0.00382882802181 0.00540202921649 0.0 0.0 0.0 0.0
77.640625 -0.00746592005623 0.242123359786 -0.00375004196507 0.00544643139931 0.0 0.0 0.0 0.0
77.65625 -0.00659174013254 0.241816407643 -0.00367078561253 0.00548976975514 0.0 0.0 0.0 0.0
77.671875 -0.0057422132007 0.241492830926 -0.00359107129996 0.00553203688838 0.0 0.0 0.0 0.0
77.6875 -0.00491770996687 0.24115263659 -0.00351090933756 0.00557322692386 0.0 0.0 0.0 0.0
77.703125 -0.00411868676256 0.240795672792 -0.00343031093077 0.0056133369028 0.0 0.0 0.0 0.0
77.71875 -0.00334553092704 0.240421924005 -0.00334929027148 0.00565236210657 0.0 0.0 0.0 0.0
77.734375 -0.0025984947263 0.240031509391 -0.00326785714541 0.00569029725379 0.0 0.0 0.0 0.0
77.75 -0.00187810696446 0.239624439464 -0.00318602502116 0.00572714162725 0.0 0.0 0.0 0.0
77.765625 -0.00118469373187 0.239200570782 -0.00310380449765 0.00576288957872 0.0 0.0 0.0 0.0
77.78125 -0.000518636920487 0.238759944511 -0.00302120940817 0.00579753385448 0.0 0.0 0.0 0.0
77.796875 0.000119787934401 0.238302523636 -0.0029382496624 0.00583107268525 0.0 0.0 0.0 0.0
77.8125 0.000730030156504 0.237828219448 -0.00285494058583 0.00586350157767 0.0 0.0 0.0 0.0
77.828125 0.00131196380659 0.237337230308 -0.00277129086548 0.00589481628031 0.0 0.0 0.0 0.0
77.84375 0.00186503195687 0.236829545952 -0.00268731481443 0.00592500991933 0.0 0.0 0.0 0.0
77.859375 0.00238910022157 0.236305075627 -0.00260302370131 0.00595408347705 0.0 0.0 0.0 0.0
77.875 0.00288357347433 0.235763706635 -0.00251843007027 0.00598202803124 0.0 0.0 0.0 0.0
77.890625 0.00334837800592 0.235205682805 -0.00243354975479 0.00600883972648 0.0 0.0 0.0 0.0
77.90625 0.00378301060828 0.234630888648 -0.00234839383212 0.00603451684242 0.0 0.0 0.0 0.0
77.921875 0.00418720688892 0.234039488167 -0.00226297640232 0.00605905347858 0.0 0.0 0.0 0.0
77.9375 0.00456061857991 0.233431309877 -0.00217731014402 0.00608244448802 0.0 0.0 0.0 0.0
77.953125 0.00490301362584 0.23280656334 -0.00209140964061 0.00610468721416 0.0 0.0 0.0 0.0
77.96875 0.00521401540536 0.232165150243 -0.00200528781246 0.00612577675325 0.0 0.0 0.0 0.0
77.984375 0.00549333046237 0.231507147048 -0.00191896023189 0.00614571048529 0.0 0.0 0.0 0.0
78.0 0.00574071469136 0.230832650349 -0.00183244004954 0.00616448674851 0.0 0.0 0.0 0.0
78.015625 0.00595593879021 0.230141625041 -0.00174574130487 0.00618210078939 0.0 0.0 0.0 0.0
78.03125 0.00613861957634 0.229434464951 -0.00165888059695 0.00619855028685 0.0 0.0 0.0 0.0
78.046875 0.00628849753906 0.228710822835 -0.00157186973926 0.00621383151447 0.0 0.0 0.0 0.0
78.0625 0.00640535024601 0.227971001035 -0.00148472466735 0.00622794271131 0.0 0.0 0.0 0.0
78.078125 0.0064888463888 0.227214995962 -0.00139746011857 0.00624087686939 0.0 0.0 0.0 0.0
78.09375 0.00653871190738 0.226442970722 -0.00131008955914 0.00625263611058 0.0 0.0 0.0 0.0
78.109375 0.00655466562492 0.225655104555 -0.00122263076834 0.00626321890369 0.0 0.0 0.0 0.0
78.125 0.00653647342486 0.224851367824 -0.00113509721965 0.00627261914472 0.0 0.0 0.0 0.0
78.140625 0.00648380752618 0.224031824428 -0.00104750483462 0.00628083332653 0.0 0.0 0.0 0.0
78.15625 0.00639636577001 0.223196552301 -0.000959869708756 0.00628786382687 0.0 0.0 0.0 0.0
78.171875 0.00627396285335 0.222345712966 -0.000872207024941 0.00629370770845 0.0 0.0 0.0 0.0
78.1875 0.00611640527921 0.22147935791 -0.000784530447353 0.00629836243446 0.0 0.0 0.0 0.0
78.203125 0.00592340959565 0.220597625885 -0.000696859133604 0.00630182778328 0.0 0.0 0.0 0.0
78.21875 0.00569468674147 0.219700520378 -0.000609208622198 0.00630410148225 0.0 0.0 0.0 0.0
78.234375 0.005430039967 0.218788269244 -0.000521595669233 0.00630518416319 0.0 0.0 0.0 0.0
78.25 0.00512926467728 0.217860866824 -0.000434035802091 0.00630507123426 0.0 0.0 0.0 0.0
78.265625 0.00479218962968 0.216918529453 -0.000346545300581 0.00630376662349 0.0 0.0 0.0 0.0
78.28125 0.00441863779348 0.215961263281 -0.000259141726804 0.00630126886682 0.0 0.0 0.0 0.0
78.296875 0.00400846623171 0.214989339035 -0.000171841173242 0.00629757962405 0.0 0.0 0.0 0.0
78.3125 0.00356141202932 0.214002746761 -8.46613115454e-05 0.00629269522087 0.0 0.0 0.0 0.0
78.328125 0.00307736077487 0.213001686831 2.38075175645e-06 0.00628661783414 0.0 0.0 0.0 0.0
78.34375 0.00255602473305 0.211986056552 8.9266272533e-05 0.00627934993201 0.0 0.0 0.0 0.0
78.359375 0.00199743625785 0.210956236519 0.000175979059986 0.00627089427161 0.0 0.0 0.0 0.0
