!SWISSto12 MCK measurement data
!name=Asphalt_58421130CI_19052022_2
!thickness[mm]=18.000
# GHz S RI R 50.0 
!freq ReS11 ImS11 ReS21 ImS21 ReS12 ImS12 ReS22 ImS22
75.0 -0.265100771942 -0.0832986853765 0.0254271347837 0.243277855668 0.0 0.0 0.0 0.0
75.015625 -0.264793182941 -0.082799028971 0.0285354897439 0.242814054467 0.0 0.0 0.0 0.0
75.03125 -0.264467357097 -0.0822947896296 0.0316367228221 0.242309836175 0.0 0.0 0.0 0.0
75.046875 -0.264122919725 -0.0817867804285 0.0347302379698 0.241765336645 0.0 0.0 0.0 0.0
75.0625 -0.263757378521 -0.0812742816959 0.0378155470865 0.241180739837 0.0 0.0 0.0 0.0
75.078125 -0.263372437771 -0.0807560722367 0.040892176851 0.240556096918 0.0 0.0 0.0 0.0
75.09375 -0.262968413537 -0.0802322268846 0.0439595164819 0.239891624419 0.0 0.0 0.0 0.0
75.109375 -0.262545640783 -0.0797032839513 0.0470171056846 0.239187439869 0.0 0.0 0.0 0.0
75.125 -0.262104263716 -0.0791691762879 0.0500644533651 0.238443671231 0.0 0.0 0.0 0.0
75.140625 -0.26164423292 -0.0786301788638 0.0531009373726 0.237660454039 0.0 0.0 0.0 0.0
75.15625 -0.261165604007 -0.0780864450108 0.05612609434 0.236838036136 0.0 0.0 0.0 0.0
75.171875 -0.260668549038 -0.0775381715332 0.0591394233638 0.235976625269 0.0 0.0 0.0 0.0
75.1875 -0.260152890385 -0.0769853843591 0.0621404567366 0.235076289641 0.0 0.0 0.0 0.0
75.203125 -0.259618928439 -0.0764282985041 0.0651286109741 0.23413729988 0.0 0.0 0.0 0.0
75.21875 -0.25906652432 -0.0758670544427 0.0681034430788 0.233159814776 0.0 0.0 0.0 0.0
75.234375 -0.258495743611 -0.0753017494387 0.0710643336572 0.232144078926 0.0 0.0 0.0 0.0
75.25 -0.257906749599 -0.0747325833879 0.0740109380617 0.231090235374 0.0 0.0 0.0 0.0
75.265625 -0.257299385242 -0.0741596065259 0.0769426832111 0.22999855841 0.0 0.0 0.0 0.0
75.28125 -0.256673799122 -0.0735829993018 0.0798590680407 0.228869225326 0.0 0.0 0.0 0.0
75.296875 -0.256030212203 -0.0730029152621 0.0827596292423 0.227702520426 0.0 0.0 0.0 0.0
75.3125 -0.255368415816 -0.072419430725 0.0856439120404 0.226498646906 0.0 0.0 0.0 0.0
75.328125 -0.254688527858 -0.0718327788857 0.0885113341364 0.225257835224 0.0 0.0 0.0 0.0
75.34375 -0.253990779603 -0.0712431267191 0.0913615658124 0.223980340518 0.0 0.0 0.0 0.0
75.359375 -0.253275030108 -0.0706504812039 0.0941939731409 0.222666431556 0.0 0.0 0.0 0.0
75.375 -0.252541489214 -0.0700551201038 0.097008214097 0.221316323783 0.0 0.0 0.0 0.0
75.390625 -0.251790163538 -0.0694570994806 0.0998037138919 0.219930338553 0.0 0.0 0.0 0.0
75.40625 -0.251021120367 -0.0688567080674 0.102580137958 0.218508699386 0.0 0.0 0.0 0.0
75.421875 -0.250234574328 -0.0682539313351 0.105336875762 0.21705179341 0.0 0.0 0.0 0.0
75.4375 -0.249430391873 -0.0676489644634 0.108073557474 0.215559728106 0.0 0.0 0.0 0.0
75.453125 -0.248608866361 -0.0670420806103 0.110789759029 0.214032936467 0.0 0.0 0.0 0.0
75.46875 -0.247769859144 -0.0664333228197 0.113484959511 0.212471583761 0.0 0.0 0.0 0.0
75.484375 -0.246913663514 -0.0658228895956 0.11615877259 0.210876192567 0.0 0.0 0.0 0.0
75.5 -0.246040243285 -0.0652110297205 0.118810745467 0.209246817981 0.0 0.0 0.0 0.0
75.515625 -0.245149762825 -0.0645979151768 0.121440425182 0.207583884699 0.0 0.0 0.0 0.0
75.53125 -0.244242239739 -0.0639837468261 0.124047424494 0.205887728851 0.0 0.0 0.0 0.0
75.546875 -0.243317882109 -0.0633686774249 0.126631292401 0.204158577793 0.0 0.0 0.0 0.0
75.5625 -0.242376720537 -0.0627530097426 0.129191583713 0.202396912542 0.0 0.0 0.0 0.0
75.578125 -0.241418901258 -0.0621370630495 0.131727896345 0.200602916893 0.0 0.0 0.0 0.0
75.59375 -0.240444444255 -0.0615211189558 0.134239918473 0.198777002958 0.0 0.0 0.0 0.0
75.609375 -0.239453185082 -0.0609056620637 0.136727065761 0.196919457584 0.0 0.0 0.0 0.0
75.625 -0.238444552854 -0.0602909556869 0.139189067617 0.195030715784 0.0 0.0 0.0 0.0
75.640625 -0.237418096513 -0.0596760914631 0.141625448386 0.193111107082 0.0 0.0 0.0 0.0
75.65625 -0.236374467006 -0.0590606727968 0.144035838564 0.191160893558 0.0 0.0 0.0 0.0
75.671875 -0.235314394704 -0.0584448469327 0.146419880732 0.1891805648 0.0 0.0 0.0 0.0
75.6875 -0.234238019023 -0.0578288071618 0.148777164854 0.187170429968 0.0 0.0 0.0 0.0
75.703125 -0.233145659661 -0.0572129196311 0.151107374461 0.185130865953 0.0 0.0 0.0 0.0
75.71875 -0.232037533896 -0.0565973138837 0.153410075029 0.183062252318 0.0 0.0 0.0 0.0
75.734375 -0.230913728858 -0.0559821184512 0.155684896237 0.180964995623 0.0 0.0 0.0 0.0
75.75 -0.229774455765 -0.0553676395134 0.157931540709 0.178839414028 0.0 0.0 0.0 0.0
75.765625 -0.22861994521 -0.0547540087376 0.160149601252 0.176685963881 0.0 0.0 0.0 0.0
75.78125 -0.227450278923 -0.0541414440142 0.162338761323 0.174505032872 0.0 0.0 0.0 0.0
75.796875 -0.226265701852 -0.0535299469086 0.164498601352 0.172296897952 0.0 0.0 0.0 0.0
75.8125 -0.225066444504 -0.0529199272756 0.166628916678 0.170062109563 0.0 0.0 0.0 0.0
75.828125 -0.22385256509 -0.0523114389844 0.168729296994 0.167801064502 0.0 0.0 0.0 0.0
75.84375 -0.222624235367 -0.0517046355975 0.170799377286 0.165514051884 0.0 0.0 0.0 0.0
75.859375 -0.221381757391 -0.0510997944162 0.172838878911 0.163201579629 0.0 0.0 0.0 0.0
75.875 -0.220125261097 -0.050496953842 0.174847549046 0.160864063631 0.0 0.0 0.0 0.0
75.890625 -0.218854928931 -0.0498963934313 0.176824960824 0.158501886719 0.0 0.0 0.0 0.0
75.90625 -0.217570902629 -0.0492982623266 0.178770912306 0.156115466514 0.0 0.0 0.0 0.0
75.921875 -0.216273507459 -0.0487026979974 0.180684974713 0.153705291142 0.0 0.0 0.0 0.0
75.9375 -0.214962889626 -0.0481098694083 0.182566959969 0.151271784043 0.0 0.0 0.0 0.0
75.953125 -0.213639236478 -0.047520009783 0.184416614279 0.148815289308 0.0 0.0 0.0 0.0
75.96875 -0.212302793062 -0.0469332251674 0.186233588767 0.146336317976 0.0 0.0 0.0 0.0
75.984375 -0.210953795498 -0.0463496790389 0.188017573451 0.143835350292 0.0 0.0 0.0 0.0
76.0 -0.209592437246 -0.045769637636 0.189768409791 0.141312722901 0.0 0.0 0.0 0.0
76.015625 -0.208218907108 -0.0451931912538 0.191485770728 0.138768959102 0.0 0.0 0.0 0.0
76.03125 -0.206833452956 -0.0446205117465 0.193169390947 0.136204470673 0.0 0.0 0.0 0.0
76.046875 -0.205436337397 -0.0440518292822 0.194819052214 0.133619702437 0.0 0.0 0.0 0.0
76.0625 -0.204027782815 -0.0434872478545 0.196434507184 0.131015152922 0.0 0.0 0.0 0.0
76.078125 -0.20260798954 -0.042926996602 0.198015438651 0.128391254083 0.0 0.0 0.0 0.0
76.09375 -0.201177179344 -0.0423713361222 0.19956175495 0.125748435303 0.0 0.0 0.0 0.0
76.109375 -0.199735566078 -0.0418203668748 0.201073117439 0.123087234594 0.0 0.0 0.0 0.0
76.125 -0.198283404249 -0.0412743446479 0.20254938102 0.120408042442 0.0 0.0 0.0 0.0
76.140625 -0.196820821105 -0.0407335029583 0.203990287545 0.117711344717 0.0 0.0 0.0 0.0
76.15625 -0.195347879826 -0.0401980967267 0.205395593994 0.114997618415 0.0 0.0 0.0 0.0
76.171875 -0.193864540181 -0.0396681742301 0.206765169937 0.112267366603 0.0 0.0 0.0 0.0
76.1875 -0.192370985622 -0.039143507887 0.208098842443 0.109521020302 0.0 0.0 0.0 0.0
76.203125 -0.190867560421 -0.0386239736067 0.209396364788 0.106759051134 0.0 0.0 0.0 0.0
76.21875 -0.189354838687 -0.0381097119857 0.21065753014 0.10398192634 0.0 0.0 0.0 0.0
76.234375 -0.187833171269 -0.0376008744967 0.211882207077 0.101190210409 0.0 0.0 0.0 0.0
76.25 -0.186302899849 -0.0370976615189 0.213070256641 0.0983842610209 0.0 0.0 0.0 0.0
76.265625 -0.18476433459 -0.0366002227881 0.214221427255 0.0955646257847 0.0 0.0 0.0 0.0
76.28125 -0.183217907674 -0.0361087337176 0.215335665551 0.0927318121293 0.0 0.0 0.0 0.0
76.296875 -0.181663864792 -0.0356233558792 0.216412678936 0.0898862468094 0.0 0.0 0.0 0.0
76.3125 -0.180102448281 -0.0351440762326 0.21745244413 0.0870284637092 0.0 0.0 0.0 0.0
76.328125 -0.178534027365 -0.034671193216 0.218454799642 0.084158943791 0.0 0.0 0.0 0.0
76.34375 -0.176958851871 -0.0342047817308 0.219419646443 0.0812781667791 0.0 0.0 0.0 0.0
76.359375 -0.17537727277 -0.0337450323418 0.220346744327 0.0783866425531 0.0 0.0 0.0 0.0
76.375 -0.173789567205 -0.0332921045817 0.221236083646 0.0754847916748 0.0 0.0 0.0 0.0
76.390625 -0.172196071515 -0.032846063848 0.222087492007 0.0725732056976 0.0 0.0 0.0 0.0
76.40625 -0.170597048157 -0.0324071605614 0.222900893517 0.0696522949713 0.0 0.0 0.0 0.0
76.421875 -0.168992902696 -0.0319754070956 0.223676194461 0.0667226259362 0.0 0.0 0.0 0.0
76.4375 -0.167384033254 -0.031551042975 0.224413318497 0.0637846465442 0.0 0.0 0.0 0.0
76.453125 -0.165770614264 -0.0311340743633 0.225112077168 0.0608388419955 0.0 0.0 0.0 0.0
76.46875 -0.16415303033 -0.0307248117619 0.225772490318 0.0578857395034 0.0 0.0 0.0 0.0
76.484375 -0.162531636295 -0.0303232090575 0.226394429051 0.0549258557974 0.0 0.0 0.0 0.0
76.5 -0.160906756353 -0.0299294762893 0.226977865856 0.0519596451702 0.0 0.0 0.0 0.0
76.515625 -0.159278762575 -0.0295437516235 0.227522737627 0.0489876234272 0.0 0.0 0.0 0.0
76.53125 -0.157647948498 -0.0291660949577 0.228028938533 0.0460102969063 0.0 0.0 0.0 0.0
76.546875 -0.156014719617 -0.028796630832 0.228496476483 0.0430281597531 0.0 0.0 0.0 0.0
76.5625 -0.15437942642 -0.0284355625446 0.228925262856 0.0400416974958 0.0 0.0 0.0 0.0
76.578125 -0.152742441251 -0.0280829524818 0.229315333953 0.0370514607887 0.0 0.0 0.0 0.0
76.59375 -0.151104094305 -0.0277389748689 0.229666573741 0.034057867315 0.0 0.0 0.0 0.0
76.609375 -0.149464680286 -0.0274036066925 0.229978952272 0.0310614815484 0.0 0.0 0.0 0.0
76.625 -0.147824675397 -0.0270771096358 0.23025256212 0.0280627847691 0.0 0.0 0.0 0.0
76.640625 -0.146184389217 -0.026759504334 0.230487316773 0.0250622986591 0.0 0.0 0.0 0.0
76.65625 -0.144544158457 -0.0264510048319 0.230683221365 0.0220604734756 0.0 0.0 0.0 0.0
76.671875 -0.142904386016 -0.0261516065759 0.230840223819 0.0190578797133 0.0 0.0 0.0 0.0
76.6875 -0.141265464456 -0.0258614930662 0.230958445483 0.0160549413529 0.0 0.0 0.0 0.0
76.703125 -0.139627692891 -0.0255807860027 0.231037875925 0.0130521952578 0.0 0.0 0.0 0.0
76.71875 -0.137991419011 -0.0253096538462 0.231078440057 0.0100501065982 0.0 0.0 0.0 0.0
76.734375 -0.136357046203 -0.0250480826971 0.231080267167 0.0070492653333 0.0 0.0 0.0 0.0
76.75 -0.134724877873 -0.0247963800375 0.231043374199 0.00405004409094 0.0 0.0 0.0 0.0
76.765625 -0.133095058731 -0.0245545154732 0.230967726387 0.00105302290339 0.0 0.0 0.0 0.0
76.78125 -0.131467935645 -0.0243225009712 0.230853476241 -0.00194133306239 0.0 0.0 0.0 0.0
76.796875 -0.129843942244 -0.0241003065601 0.230700604126 -0.00493252666478 0.0 0.0 0.0 0.0
76.8125 -0.128223370556 -0.0238878057623 0.230509224035 -0.00792004851788 0.0 0.0 0.0 0.0
76.828125 -0.126606746645 -0.0236851242768 0.230279303507 -0.0109034214051 0.0 0.0 0.0 0.0
76.84375 -0.124994425275 -0.023492276013 0.230010993897 -0.0138821522657 0.0 0.0 0.0 0.0
76.859375 -0.123386771699 -0.0233092990448 0.229704403193 -0.0168557356651 0.0 0.0 0.0 0.0
76.875 -0.121784404703 -0.0231364239889 0.229359567721 -0.0198236976833 0.0 0.0 0.0 0.0
76.890625 -0.12018765874 -0.022973631343 0.228976606848 -0.0227855496341 0.0 0.0 0.0 0.0
76.90625 -0.118596958027 -0.0228209200565 0.228555542711 -0.0257408209562 0.0 0.0 0.0 0.0
76.921875 -0.117012817154 -0.0226784049327 0.228096588762 -0.0286889770933 0.0 0.0 0.0 0.0
76.9375 -0.11543556258 -0.0225460769274 0.227599801126 -0.031629583614 0.0 0.0 0.0 0.0
76.953125 -0.113865693253 -0.0224241478635 0.227065273786 -0.0345621480659 0.0 0.0 0.0 0.0
76.96875 -0.112303571401 -0.02231245541 0.226493205322 -0.0374862044404 0.0 0.0 0.0 0.0
76.984375 -0.110749648174 -0.0222111795675 0.225883633911 -0.0404012162317 0.0 0.0 0.0 0.0
77.0 -0.10920430914 -0.022120299206 0.225236758503 -0.0433067899837 0.0 0.0 0.0 0.0
77.015625 -0.107668015447 -0.0220398995023 0.224552676297 -0.0462024147158 0.0 0.0 0.0 0.0
77.03125 -0.106141174441 -0.0219699301296 0.223831559664 -0.0490876252785 0.0 0.0 0.0 0.0
77.046875 -0.104624267954 -0.0219105326309 0.223073493691 -0.0519619148065 0.0 0.0 0.0 0.0
77.0625 -0.103117635745 -0.0218616666866 0.222278749331 -0.054824893614 0.0 0.0 0.0 0.0
77.078125 -0.101621811335 -0.0218234509098 0.221447434292 -0.0576760149272 0.0 0.0 0.0 0.0
77.09375 -0.100137009351 -0.0217956782993 0.220579721081 -0.060514912333 0.0 0.0 0.0 0.0
77.109375 -0.0986638821902 -0.0217786353192 0.219675738158 -0.0633410146657 0.0 0.0 0.0 0.0
77.125 -0.0972028710258 -0.0217722919204 0.218735726722 -0.0661539365993 0.0 0.0 0.0 0.0
77.140625 -0.0957541988446 -0.0217766189651 0.217759857068 -0.0689531954066 0.0 0.0 0.0 0.0
77.15625 -0.0943184167055 -0.0217916388792 0.216748317293 -0.0717383576863 0.0 0.0 0.0 0.0
77.171875 -0.0928959696927 -0.0218174236481 0.215701322461 -0.0745089277462 0.0 0.0 0.0 0.0
77.1875 -0.0914872408222 -0.0218539229631 0.214619049251 -0.0772645421596 0.0 0.0 0.0 0.0
77.203125 -0.0900925923023 -0.021901078605 0.213501752344 -0.0800047052708 0.0 0.0 0.0 0.0
77.21875 -0.0887126420141 -0.0219591262971 0.212349544843 -0.0827289661617 0.0 0.0 0.0 0.0
77.234375 -0.0873475667281 -0.0220278404056 0.211162783178 -0.0854368856767 0.0 0.0 0.0 0.0
77.25 -0.0859980419943 -0.0221074375666 0.209941626447 -0.0881280647608 0.0 0.0 0.0 0.0
77.265625 -0.0846642672536 -0.0221977759122 0.208686241754 -0.0908020313424 0.0 0.0 0.0 0.0
77.28125 -0.0833467084073 -0.0222988212792 0.207396998357 -0.0934583676941 0.0 0.0 0.0 0.0
77.296875 -0.0820458468217 -0.0224107018724 0.206073982599 -0.0960966323346 0.0 0.0 0.0 0.0
77.3125 -0.0807620729881 -0.022533368103 0.204717612346 -0.0987164517163 0.0 0.0 0.0 0.0
77.328125 -0.0794957192545 -0.0226667854625 0.203328019554 -0.101317371415 0.0 0.0 0.0 0.0
77.34375 -0.0782472841403 -0.0228110024831 0.201905486886 -0.103898982494 0.0 0.0 0.0 0.0
77.359375 -0.0770170245578 -0.0229659230409 0.200450388221 -0.106460824007 0.0 0.0 0.0 0.0
77.375 -0.0758053702692 -0.0231314484386 0.198962788495 -0.109002606906 0.0 0.0 0.0 0.0
77.390625 -0.0746128395214 -0.0233077149559 0.197443132732 -0.111523816422 0.0 0.0 0.0 0.0
77.40625 -0.073439662572 -0.0234944923403 0.195891607904 -0.114024065125 0.0 0.0 0.0 0.0
77.421875 -0.0722864121406 -0.0236917862311 0.194308539257 -0.116502983134 0.0 0.0 0.0 0.0
77.4375 -0.071153410008 -0.0238995970633 0.192694191888 -0.118960167217 0.0 0.0 0.0 0.0
77.453125 -0.0700411149757 -0.0241177863104 0.191048836254 -0.12139521676 0.0 0.0 0.0 0.0
77.46875 -0.0689500279419 -0.024346450366 0.189372877051 -0.123807809109 0.0 0.0 0.0 0.0
77.484375 -0.067880275194 -0.024585124029 0.187666502286 -0.126197420905 0.0 0.0 0.0 0.0
77.5 -0.0668326462699 -0.0248343643429 0.185930084486 -0.128563801786 0.0 0.0 0.0 0.0
77.515625 -0.0658072843217 -0.0250938206317 0.184163864305 -0.130906505503 0.0 0.0 0.0 0.0
77.53125 -0.0648047301913 -0.0253634903822 0.182368257643 -0.133225152349 0.0 0.0 0.0 0.0
77.546875 -0.0638252887674 -0.0256432651744 0.180543544484 -0.135519435436 0.0 0.0 0.0 0.0
77.5625 -0.0628693983009 -0.0259330289251 0.178690050952 -0.137788951359 0.0 0.0 0.0 0.0
77.578125 -0.0619374974162 -0.0262328622116 0.176808140015 -0.140033382533 0.0 0.0 0.0 0.0
77.59375 -0.0610298879253 -0.0265426457068 0.174898090586 -0.142252366441 0.0 0.0 0.0 0.0
77.609375 -0.0601469327191 -0.0268622416443 0.17296032043 -0.144445497528 0.0 0.0 0.0 0.0
77.625 -0.0592891176442 -0.0271916836071 0.170995071097 -0.146612478578 0.0 0.0 0.0 0.0
77.640625 -0.0584567042786 -0.0275307663524 0.169002796538 -0.148752996888 0.0 0.0 0.0 0.0
77.65625 -0.0576501118887 -0.0278794827613 0.166983776354 -0.150866650572 0.0 0.0 0.0 0.0
77.671875 -0.0568696944939 -0.0282377023589 0.16493837826 -0.152953133696 0.0 0.0 0.0 0.0
77.6875 -0.0561158343883 -0.028605299289 0.162867029072 -0.155012157816 0.0 0.0 0.0 0.0
77.703125 -0.0553889900408 -0.028982342937 0.160770009744 -0.157043381896 0.0 0.0 0.0 0.0
77.71875 -0.0546894643565 -0.0293686544624 0.158647694176 -0.159046447495 0.0 0.0 0.0 0.0
77.734375 -0.0540175197068 -0.0297640972526 0.156500530979 -0.161021072061 0.0 0.0 0.0 0.0
77.75 -0.0533736239478 -0.0301685330131 0.154328810178 -0.162966964197 0.0 0.0 0.0 0.0
77.765625 -0.0527581482486 -0.0305820362156 0.152132984849 -0.164883785922 0.0 0.0 0.0 0.0
77.78125 -0.0521714018696 -0.0310044053329 0.149913380551 -0.166771261269 0.0 0.0 0.0 0.0
77.796875 -0.0516137591457 -0.0314356326259 0.147670475201 -0.168629083232 0.0 0.0 0.0 0.0
77.8125 -0.0510855434826 -0.0318756042053 0.145404550771 -0.170456995866 0.0 0.0 0.0 0.0
77.828125 -0.0505870474268 -0.0323241097084 0.143116064688 -0.172254694491 0.0 0.0 0.0 0.0
77.84375 -0.0501186418148 -0.0327811203506 0.140805428576 -0.174021891881 0.0 0.0 0.0 0.0
77.859375 -0.0496806403784 -0.0332465786227 0.138473019331 -0.175758305839 0.0 0.0 0.0 0.0
77.875 -0.0492733902042 -0.0337203608187 0.136119209078 -0.177463695712 0.0 0.0 0.0 0.0
77.890625 -0.0488971396643 -0.0342023575752 0.133744514123 -0.179137840661 0.0 0.0 0.0 0.0
77.90625 -0.0485522108717 -0.0346924493754 0.131349218331 -0.180780336197 0.0 0.0 0.0 0.0
77.921875 -0.0482389077756 -0.0351904765566 0.128933841204 -0.182391068711 0.0 0.0 0.0 0.0
77.9375 -0.0479575443657 -0.0356964608091 0.126498772884 -0.183969753214 0.0 0.0 0.0 0.0
77.953125 -0.0477083464756 -0.036210108811 0.124044397558 -0.18551614571 0.0 0.0 0.0 0.0
77.96875 -0.0474916832213 -0.0367314854082 0.121571179123 -0.187030014452 0.0 0.0 0.0 0.0
77.984375 -0.0473077340547 -0.0372603932638 0.119079570458 -0.188511085919 0.0 0.0 0.0 0.0
78.0 -0.0471568004485 -0.0377966948391 0.116569992153 -0.189959231335 0.0 0.0 0.0 0.0
78.015625 -0.0470390611356 -0.0383403329876 0.114042825944 -0.191374149309 0.0 0.0 0.0 0.0
78.03125 -0.0469547962476 -0.0388909551407 0.111498572032 -0.192755674957 0.0 0.0 0.0 0.0
78.046875 -0.046904252085 -0.0394486615351 0.108937631015 -0.194103596041 0.0 0.0 0.0 0.0
78.0625 -0.0468877289606 -0.0400131922052 0.10636048178 -0.195417718675 0.0 0.0 0.0 0.0
78.078125 -0.0469053770925 -0.0405844110292 0.103767507226 -0.196697797931 0.0 0.0 0.0 0.0
78.09375 -0.0469575207892 -0.0411622042235 0.101159212622 -0.197943723557 0.0 0.0 0.0 0.0
78.109375 -0.0470442399313 -0.0417462466484 0.0985360171338 -0.199155190632 0.0 0.0 0.0 0.0
78.125 -0.0471659186738 -0.042336529125 0.095898357628 -0.200332191888 0.0 0.0 0.0 0.0
78.140625 -0.0473227722866 -0.0429329339442 0.0932467465071 -0.201474444994 0.0 0.0 0.0 0.0
78.15625 -0.0475150232201 -0.0435352313022 0.0905815788777 -0.202581759485 0.0 0.0 0.0 0.0
78.171875 -0.0477428230615 -0.0441433228642 0.0879033789612 -0.203654052661 0.0 0.0 0.0 0.0
78.1875 -0.048006388732 -0.044757044045 0.0852125393376 -0.204691093967 0.0 0.0 0.0 0.0
78.203125 -0.0483059012168 -0.0453762265079 0.0825095403056 -0.205692780105 0.0 0.0 0.0 0.0
78.21875 -0.0486416353966 -0.0460007668022 0.0797948252362 -0.206659002593 0.0 0.0 0.0 0.0
78.234375 -0.0490136873411 -0.0466304432689 0.0770689587443 -0.207589561024 0.0 0.0 0.0 0.0
78.25 -0.0494222577329 -0.0472651420587 0.0743322521274 -0.208484332618 0.0 0.0 0.0 0.0
78.265625 -0.0498675824539 -0.047904762783 0.0715853441309 -0.209343235186 0.0 0.0 0.0 0.0
78.28125 -0.0503497055733 -0.0485490123703 0.0688285675615 -0.210166122382 0.0 0.0 0.0 0.0
78.296875 -0.0508686837616 -0.0491977504087 0.0660624559839 -0.210952886852 0.0 0.0 0.0 0.0
78.3125 -0.051424793754 -0.0498508956795 0.0632874735553 -0.211703401007 0.0 0.0 0.0 0.0
78.328125 -0.0520180451691 -0.0505082146298 0.0605040651613 -0.212417574442 0.0 0.0 0.0 0.0
78.34375 -0.0526488100218 -0.0511697336957 0.0577127394858 -0.213095329443 0.0 0.0 0.0 0.0
78.359375 -0.0533168591603 -0.051835108297 0.0549139423956 -0.213736587383 0.0 0.0 0.0 0.0
78.375 -0.0540224507884 -0.0525042668514 0.0521081774302 -0.21434126042 0.0 0.0 0.0 0.0
78.390625 -0.054765686631 -0.0531770192707 0.0492959384623 -0.214909221167 0.0 0.0 0.0 0.0
78.40625 -0.0555465908722 -0.0538531777534 0.0464776757053 -0.21544040913 0.0 0.0 0.0 0.0
78.421875 -0.0563653546571 -0.054532746507 0.043653858929 -0.215934863377 0.0 0.0 0.0 0.0
78.4375 -0.0572219202804 -0.0552153491659 0.040825032685 -0.216392416684 0.0 0.0 0.0 0.0
78.453125 -0.0581164578167 -0.0559009918861 0.0379915953436 -0.216813061132 0.0 0.0 0.0 0.0
