!SWISSto12 MCK measurement data
!name=Concrete_19052022_2
!thickness[mm]=18.000
# GHz S RI R 50.0 
!freq ReS11 ImS11 ReS21 ImS21 ReS12 ImS12 ReS22 ImS22
75.0 -0.287057254756 0.103139142812 -0.052183092047 0.0615287618693 0.0 0.0 0.0 0.0
75.015625 -0.286632177402 0.103629575266 -0.0513679634724 0.0621027507635 0.0 0.0 0.0 0.0
75.03125 -0.286193853328 0.104131022921 -0.0505462470457 0.062665848154 0.0 0.0 0.0 0.0
75.046875 -0.285741891995 0.104642776986 -0.0497180737218 0.0632179882514 0.0 0.0 0.0 0.0
75.0625 -0.285274044665 0.10516638257 -0.0488836173271 0.0637590738718 0.0 0.0 0.0 0.0
75.078125 -0.284792088 0.105702652808 -0.0480430127 0.0642890637266 0.0 0.0 0.0 0.0
75.09375 -0.284296750495 0.10625136604 -0.0471964371774 0.0648078862771 0.0 0.0 0.0 0.0
75.109375 -0.283788149726 0.106811935682 -0.0463440601102 0.0653154795668 0.0 0.0 0.0 0.0
75.125 -0.283266284946 0.107384376522 -0.04548595991 0.0658117836402 0.0 0.0 0.0 0.0
75.140625 -0.282731078295 0.107968337383 -0.0446223609007 0.0662967239227 0.0 0.0 0.0 0.0
75.15625 -0.28218275663 0.10856378622 -0.0437533890161 0.0667702546372 0.0 0.0 0.0 0.0
75.171875 -0.281621136593 0.109170456993 -0.0428792333372 0.0672323112027 0.0 0.0 0.0 0.0
75.1875 -0.281046346316 0.109788287406 -0.0420000023311 0.0676828627955 0.0 0.0 0.0 0.0
75.203125 -0.280458330744 0.110417131763 -0.0411158765109 0.0681218549615 0.0 0.0 0.0 0.0
75.21875 -0.279857147583 0.111056735482 -0.0402270279435 0.0685492215936 0.0 0.0 0.0 0.0
75.234375 -0.279242834298 0.111707071884 -0.0393335930632 0.0689649205664 0.0 0.0 0.0 0.0
75.25 -0.278615299428 0.112367985386 -0.0384357346017 0.0693689362377 0.0 0.0 0.0 0.0
75.265625 -0.277974592247 0.113039320622 -0.0375336089956 0.0697611790005 0.0 0.0 0.0 0.0
75.28125 -0.277320723201 0.113720926667 -0.0366273967871 0.0701416483789 0.0 0.0 0.0 0.0
75.296875 -0.27665370978 0.114412545976 -0.0357172265005 0.0705102945587 0.0 0.0 0.0 0.0
75.3125 -0.27597362577 0.115114212555 -0.034803271166 0.0708670857326 0.0 0.0 0.0 0.0
75.328125 -0.275280384759 0.115825655059 -0.0338856962393 0.0712119773326 0.0 0.0 0.0 0.0
75.34375 -0.274574112651 0.116546689258 -0.0329646464519 0.0715449562415 0.0 0.0 0.0 0.0
75.359375 -0.273854706118 0.117277248693 -0.0320403065986 0.0718659736145 0.0 0.0 0.0 0.0
75.375 -0.273122364875 0.118017135732 -0.0311128239164 0.0721750007329 0.0 0.0 0.0 0.0
75.390625 -0.272376960849 0.118766086791 -0.0301823494259 0.0724720463124 0.0 0.0 0.0 0.0
75.40625 -0.271618637912 0.119524029892 -0.02924905527 0.0727570372806 0.0 0.0 0.0 0.0
75.421875 -0.270847375109 0.120290777472 -0.0283130984354 0.0730300026656 0.0 0.0 0.0 0.0
75.4375 -0.270063198698 0.121066193692 -0.0273746484025 0.0732908943221 0.0 0.0 0.0 0.0
75.453125 -0.269266060353 0.121849989167 -0.026433858206 0.0735397097875 0.0 0.0 0.0 0.0
75.46875 -0.268456132845 0.122642016376 -0.0254908829726 0.0737763929815 0.0 0.0 0.0 0.0
75.484375 -0.267633411676 0.123442123212 -0.0245458977997 0.0740010102684 0.0 0.0 0.0 0.0
75.5 -0.266797837022 0.124250043945 -0.0235990415914 0.0742134612756 0.0 0.0 0.0 0.0
75.515625 -0.26594952985 0.125065508885 -0.0226505123437 0.0744138270062 0.0 0.0 0.0 0.0
75.53125 -0.265088540433 0.125888399326 -0.0217004357075 0.074602034008 0.0 0.0 0.0 0.0
75.546875 -0.26421481541 0.126718362654 -0.0207489878706 0.0747781026909 0.0 0.0 0.0 0.0
75.5625 -0.26332855182 0.127555197524 -0.0197963291292 0.0749420424935 0.0 0.0 0.0 0.0
75.578125 -0.262429529651 0.128398533399 -0.0188426206476 0.0750938295214 0.0 0.0 0.0 0.0
75.59375 -0.261517892166 0.129248065266 -0.0178880162093 0.0752334965946 0.0 0.0 0.0 0.0
75.609375 -0.26059320993 0.130103279281 -0.0169326867235 0.0753610218584 0.0 0.0 0.0 0.0
75.625 -0.259654854898 0.130964136661 -0.015976780827 0.0754764258908 0.0 0.0 0.0 0.0
75.640625 -0.258702511714 0.131831731613 -0.0150204662503 0.0755797268486 0.0 0.0 0.0 0.0
75.65625 -0.257737140022 0.132706159792 -0.0140638904331 0.0756708974811 0.0 0.0 0.0 0.0
75.671875 -0.256759237249 0.13358708865 -0.0131072238976 0.0757499771508 0.0 0.0 0.0 0.0
75.6875 -0.255768967793 0.134474280166 -0.0121506326379 0.0758169911875 0.0 0.0 0.0 0.0
75.703125 -0.254766442422 0.135367328832 -0.011194256458 0.0758719370901 0.0 0.0 0.0 0.0
75.71875 -0.253751888303 0.136266088425 -0.0102382604053 0.0759148443578 0.0 0.0 0.0 0.0
75.734375 -0.252725460479 0.13717027971 -0.00928281851194 0.0759457437311 0.0 0.0 0.0 0.0
75.75 -0.251687089079 0.138079644101 -0.00832805124885 0.0759646577723 0.0 0.0 0.0 0.0
75.765625 -0.250636917709 0.138993864397 -0.00737414950896 0.0759716025425 0.0 0.0 0.0 0.0
75.78125 -0.249575204146 0.139912875033 -0.00642124310518 0.0759666031587 0.0 0.0 0.0 0.0
75.796875 -0.248501912452 0.140836362107 -0.00546950188379 0.0759496826961 0.0 0.0 0.0 0.0
75.8125 -0.247417210243 0.141764038945 -0.00451906786603 0.0759209189418 0.0 0.0 0.0 0.0
75.828125 -0.246321153568 0.142695754209 -0.00357008550923 0.0758802904915 0.0 0.0 0.0 0.0
75.84375 -0.245213885049 0.143631331406 -0.00262274454194 0.0758278597531 0.0 0.0 0.0 0.0
75.859375 -0.244095501136 0.144570306123 -0.00167714083848 0.0757636616283 0.0 0.0 0.0 0.0
75.875 -0.24296619823 0.14551272484 -0.000733480759588 0.075687729245 0.0 0.0 0.0 0.0
75.890625 -0.241825958591 0.146458201576 0.000208120860396 0.075600133501 0.0 0.0 0.0 0.0
75.90625 -0.240675033267 0.147406513096 0.00114751989106 0.0755008629716 0.0 0.0 0.0 0.0
75.921875 -0.239513454162 0.148357383089 0.00208455256453 0.0753899916126 0.0 0.0 0.0 0.0
75.9375 -0.238341471011 0.149310715737 0.00301906755946 0.0752675955491 0.0 0.0 0.0 0.0
75.953125 -0.23715904211 0.150266126206 0.00395093162037 0.0751336693718 0.0 0.0 0.0 0.0
75.96875 -0.235966473403 0.151223494138 0.00488000504756 0.0749882922463 0.0 0.0 0.0 0.0
75.984375 -0.234763917588 0.152182485447 0.00580611933212 0.0748315306951 0.0 0.0 0.0 0.0
76.0 -0.233551422984 0.153142878025 0.00672915158954 0.0746633842057 0.0 0.0 0.0 0.0
76.015625 -0.232329115776 0.154104501991 0.0076489591122 0.0744839709746 0.0 0.0 0.0 0.0
76.03125 -0.231097184689 0.155066986932 0.00856539015165 0.074293296524 0.0 0.0 0.0 0.0
76.046875 -0.229855825072 0.156030126564 0.00947831383108 0.0740914653825 0.0 0.0 0.0 0.0
76.0625 -0.228605083983 0.156993774084 0.010387591122 0.073878502063 0.0 0.0 0.0 0.0
76.078125 -0.22734520173 0.157957558945 0.0112930774213 0.0736544669315 0.0 0.0 0.0 0.0
76.09375 -0.226076298482 0.158921188017 0.012194624722 0.0734194563214 0.0 0.0 0.0 0.0
76.109375 -0.224798444058 0.15988444683 0.0130921181269 0.0731735135176 0.0 0.0 0.0 0.0
76.125 -0.223511809384 0.160847036597 0.0139854165688 0.072916704235 0.0 0.0 0.0 0.0
76.140625 -0.222216441157 0.161808684276 0.0148743736687 0.0726491141607 0.0 0.0 0.0 0.0
76.15625 -0.220912340814 0.162769083217 0.0157588601686 0.0723707613607 0.0 0.0 0.0 0.0
76.171875 -0.219599307103 0.163728205922 0.0166387613246 0.0720817787226 0.0 0.0 0.0 0.0
76.1875 -0.218277666412 0.164686167138 0.0175139281583 0.0717822254731 0.0 0.0 0.0 0.0
76.203125 -0.216947735905 0.165643040248 0.0183842408369 0.0714721561662 0.0 0.0 0.0 0.0
76.21875 -0.215610079877 0.166598527442 0.0192495596979 0.0711516655791 0.0 0.0 0.0 0.0
76.234375 -0.2142649038 0.167552271461 0.0201097667303 0.0708208114435 0.0 0.0 0.0 0.0
76.25 -0.212912466263 0.168504052545 0.0209647345386 0.0704796893001 0.0 0.0 0.0 0.0
76.265625 -0.211553024925 0.169453517706 0.0218143423351 0.0701283779587 0.0 0.0 0.0 0.0
76.28125 -0.210186877738 0.170400513551 0.0226584426061 0.0697669666799 0.0 0.0 0.0 0.0
76.296875 -0.208814298787 0.17134468909 0.0234969398735 0.0693955134301 0.0 0.0 0.0 0.0
76.3125 -0.207435405546 0.172286034904 0.0243297032541 0.0690141230413 0.0 0.0 0.0 0.0
76.328125 -0.206050396463 0.173224169332 0.0251566078183 0.0686228838216 0.0 0.0 0.0 0.0
76.34375 -0.204659508581 0.174158816067 0.0259775448608 0.0682218973623 0.0 0.0 0.0 0.0
76.359375 -0.203262891006 0.175089721772 0.0267923750713 0.0678112101951 0.0 0.0 0.0 0.0
76.375 -0.201860933558 0.17601667936 0.0276010217701 0.0673909494276 0.0 0.0 0.0 0.0
76.390625 -0.200453712604 0.176939404784 0.0284033416975 0.0669612015546 0.0 0.0 0.0 0.0
76.40625 -0.199041579119 0.177857667758 0.0291992347109 0.0665220550257 0.0 0.0 0.0 0.0
76.421875 -0.197624755869 0.178771130049 0.0299885841464 0.0660736070737 0.0 0.0 0.0 0.0
76.4375 -0.196203562242 0.179679664302 0.0307712681464 0.0656159421453 0.0 0.0 0.0 0.0
76.453125 -0.194778053007 0.180583050942 0.0315472038932 0.065149181208 0.0 0.0 0.0 0.0
76.46875 -0.193348659021 0.181480889402 0.0323162568152 0.0646734012573 0.0 0.0 0.0 0.0
76.484375 -0.191915631983 0.182373029341 0.0330783445802 0.0641887089528 0.0 0.0 0.0 0.0
76.5 -0.190479146566 0.183259325147 0.0338333462222 0.063695196585 0.0 0.0 0.0 0.0
76.515625 -0.18903955474 0.184139414631 0.0345811857299 0.0631929887053 0.0 0.0 0.0 0.0
76.53125 -0.187597087471 0.185013116598 0.0353217251325 0.0626821734146 0.0 0.0 0.0 0.0
76.546875 -0.186152019836 0.185880174068 0.0360548966886 0.0621628564958 0.0 0.0 0.0 0.0
76.5625 -0.184704734028 0.186740317764 0.0367805809638 0.0616351383054 0.0 0.0 0.0 0.0
76.578125 -0.183255361057 0.187593377704 0.0374986967174 0.0610991358096 0.0 0.0 0.0 0.0
76.59375 -0.181804198455 0.188439030552 0.0382091314291 0.0605549314995 0.0 0.0 0.0 0.0
76.609375 -0.180351605831 0.189277146746 0.0389118111383 0.0600026601088 0.0 0.0 0.0 0.0
76.625 -0.178897836176 0.190107313955 0.0396066258653 0.0594424067809 0.0 0.0 0.0 0.0
76.640625 -0.177443124307 0.19092958333 0.0402934897033 0.0588743185279 0.0 0.0 0.0 0.0
76.65625 -0.175987860439 0.191743439685 0.0409723280232 0.0582984800438 0.0 0.0 0.0 0.0
76.671875 -0.174532221068 0.192548776398 0.0416430356154 0.0577149986899 0.0 0.0 0.0 0.0
76.6875 -0.173076635644 0.193345305107 0.0423055348811 0.0571240032088 0.0 0.0 0.0 0.0
76.703125 -0.171621180307 0.194132838457 0.0429597354113 0.0565255951606 0.0 0.0 0.0 0.0
76.71875 -0.170166302166 0.194911060526 0.0436055685356 0.0559198810289 0.0 0.0 0.0 0.0
76.734375 -0.168712227444 0.195679825861 0.0442429382334 0.0553070301809 0.0 0.0 0.0 0.0
76.75 -0.167259167017 0.196438787328 0.0448717836527 0.054687087598 0.0 0.0 0.0 0.0
76.765625 -0.165807184739 0.19718784579 0.0454919990707 0.0540602158045 0.0 0.0 0.0 0.0
76.78125 -0.164356658476 0.197926902294 0.0461035194196 0.0534265067531 0.0 0.0 0.0 0.0
76.796875 -0.162907901387 0.198655921058 0.046706275785 0.0527860978109 0.0 0.0 0.0 0.0
76.8125 -0.16146125788 0.19937477572 0.0473002052443 0.0521391027543 0.0 0.0 0.0 0.0
76.828125 -0.160017198965 0.200083284858 0.0478852290145 0.0514856516585 0.0 0.0 0.0 0.0
76.84375 -0.158575946084 0.2007813708 0.048461255951 0.0508258469404 0.0 0.0 0.0 0.0
76.859375 -0.157137734293 0.201468809414 0.0490282488128 0.0501598272248 0.0 0.0 0.0 0.0
76.875 -0.155703171336 0.20214513511 0.0495861159189 0.0494877000112 0.0 0.0 0.0 0.0
76.890625 -0.154272570986 0.202810340117 0.0501348204176 0.0488096077236 0.0 0.0 0.0 0.0
76.90625 -0.152846218069 0.203464130361 0.0506742626522 0.0481256492915 0.0 0.0 0.0 0.0
76.921875 -0.151424572347 0.204106302938 0.051204420532 0.0474359785504 0.0 0.0 0.0 0.0
76.9375 -0.15000794777 0.204736775472 0.0517252118401 0.0467407034614 0.0 0.0 0.0 0.0
76.953125 -0.148596759662 0.205355091024 0.0522365813208 0.0460399505823 0.0 0.0 0.0 0.0
76.96875 -0.147191327009 0.205961494608 0.0527384784334 0.0453338434351 0.0 0.0 0.0 0.0
76.984375 -0.145792019149 0.206555380916 0.0532308333504 0.0446225306719 0.0 0.0 0.0 0.0
77.0 -0.144399146338 0.207136814131 0.053713625861 0.0439061049323 0.0 0.0 0.0 0.0
77.015625 -0.143013172332 0.20770555531 0.0541867809167 0.0431847265295 0.0 0.0 0.0 0.0
77.03125 -0.141634366738 0.208261410775 0.0546502573098 0.0424584933921 0.0 0.0 0.0 0.0
77.046875 -0.140263218654 0.208804181104 0.0551040048424 0.0417275660634 0.0 0.0 0.0 0.0
77.0625 -0.13890003861 0.209333765053 0.0555479645707 0.040992045217 0.0 0.0 0.0 0.0
77.078125 -0.137545162032 0.209849887536 0.0559821244058 0.040252071864 0.0 0.0 0.0 0.0
77.09375 -0.136198942057 0.210352666237 0.0564064063881 0.0395077773717 0.0 0.0 0.0 0.0
77.109375 -0.134861855779 0.210841555797 0.0568208076714 0.0387592952495 0.0 0.0 0.0 0.0
77.125 -0.133534229987 0.211316513692 0.0572252641438 0.0380067431643 0.0 0.0 0.0 0.0
77.140625 -0.13221634851 0.211777400547 0.0576197357401 0.0372502606433 0.0 0.0 0.0 0.0
77.15625 -0.13090871187 0.212224142789 0.0580041942565 0.0364899721826 0.0 0.0 0.0 0.0
77.171875 -0.12961165057 0.212656427246 0.0583786161285 0.0357260256538 0.0 0.0 0.0 0.0
77.1875 -0.128325557548 0.213074200045 0.058742955524 0.0349585221185 0.0 0.0 0.0 0.0
77.203125 -0.127050699495 0.213477361717 0.0590972005916 0.0341876252534 0.0 0.0 0.0 0.0
77.21875 -0.125787589442 0.213865514489 0.0594412885144 0.0334134414024 0.0 0.0 0.0 0.0
77.234375 -0.124536510793 0.214238848425 0.059775221655 0.0326361167791 0.0 0.0 0.0 0.0
77.25 -0.123297926301 0.21459694867 0.0600989914 0.0318557892677 0.0 0.0 0.0 0.0
77.265625 -0.122072056154 0.214939769113 0.060412535906 0.031072572806 0.0 0.0 0.0 0.0
77.28125 -0.120859344215 0.215267326598 0.0607158456594 0.0302866141161 0.0 0.0 0.0 0.0
77.296875 -0.119660224531 0.215579121643 0.061008894531 0.0294980301566 0.0 0.0 0.0 0.0
77.3125 -0.11847501133 0.215875349626 0.0612916910392 0.0287069715698 0.0 0.0 0.0 0.0
77.328125 -0.117303995041 0.216155726445 0.0615641939194 0.0279135590343 0.0 0.0 0.0 0.0
77.34375 -0.116147613898 0.216420170104 0.0618264047898 0.0271179303735 0.0 0.0 0.0 0.0
77.359375 -0.11500619196 0.216668633669 0.0620783126109 0.0263202188888 0.0 0.0 0.0 0.0
77.375 -0.113880041932 0.216901017797 0.0623198661575 0.0255205430463 0.0 0.0 0.0 0.0
77.390625 -0.112769565347 0.217117149512 0.0625511156786 0.0247190509206 0.0 0.0 0.0 0.0
77.40625 -0.111675161154 0.217317103334 0.0627719936939 0.0239158705721 0.0 0.0 0.0 0.0
77.421875 -0.110597245445 0.217500675588 0.062982559019 0.0231111358131 0.0 0.0 0.0 0.0
77.4375 -0.109536157485 0.217667766067 0.063182752679 0.022304961121 0.0 0.0 0.0 0.0
77.453125 -0.108492266034 0.217818411159 0.0633725953014 0.0214975067282 0.0 0.0 0.0 0.0
77.46875 -0.107466062164 0.217952319551 0.0635520935257 0.0206888884864 0.0 0.0 0.0 0.0
77.484375 -0.106457800712 0.21806982532 0.0637212342122 0.0198792386582 0.0 0.0 0.0 0.0
77.5 -0.105467962029 0.218170261311 0.0638800085247 0.0190686814929 0.0 0.0 0.0 0.0
77.515625 -0.104496879272 0.218253954018 0.0640284358764 0.0182573539081 0.0 0.0 0.0 0.0
77.53125 -0.103544945172 0.218320697465 0.0641665210902 0.0174453965196 0.0 0.0 0.0 0.0
77.546875 -0.102612334344 0.218370507441 0.0642942774672 0.0166329250729 0.0 0.0 0.0 0.0
77.5625 -0.101699606939 0.218403245995 0.0644116971268 0.0158200835321 0.0 0.0 0.0 0.0
77.578125 -0.100807093233 0.218418825603 0.0645187785645 0.0150069991402 0.0 0.0 0.0 0.0
77.59375 -0.0999350686622 0.2184171248 0.0646155669745 0.0141937969723 0.0 0.0 0.0 0.0
77.609375 -0.0990839031796 0.218398237967 0.06470207608 0.0133806147759 0.0 0.0 0.0 0.0
77.625 -0.098254037091 0.218361964934 0.0647782952642 0.0125675736077 0.0 0.0 0.0 0.0
77.640625 -0.0974456616896 0.218308418215 0.0648442710476 0.0117548122889 0.0 0.0 0.0 0.0
77.65625 -0.096659326017 0.218237431272 0.0649000105603 0.0109424519033 0.0 0.0 0.0 0.0
77.671875 -0.095895343233 0.218149027014 0.0649455212262 0.0101306202272 0.0 0.0 0.0 0.0
77.6875 -0.0951539904654 0.218043239492 0.0649808414202 0.0093194439276 0.0 0.0 0.0 0.0
77.703125 -0.0944356682347 0.217919845027 0.0650059956788 0.00850905412883 0.0 0.0 0.0 0.0
77.71875 -0.0937407975475 0.217778920943 0.0650210114515 0.00769957167247 0.0 0.0 0.0 0.0
77.734375 -0.0930696623448 0.217620484515 0.0650259008207 0.00689113750479 0.0 0.0 0.0 0.0
77.75 -0.0924225964516 0.21744452554 0.0650206962571 0.00608385398736 0.0 0.0 0.0 0.0
77.765625 -0.0917999905679 0.217250863158 0.0650054418868 0.00527786083393 0.0 0.0 0.0 0.0
77.78125 -0.0912021064848 0.217039674651 0.0649801419219 0.004473282926 0.0 0.0 0.0 0.0
77.796875 -0.0906293751035 0.216810749697 0.0649448742968 0.00367023723652 0.0 0.0 0.0 0.0
77.8125 -0.0900820949372 0.216564067491 0.0648996316291 0.00286885041266 0.0 0.0 0.0 0.0
77.828125 -0.089560518294 0.216299840882 0.0648444799604 0.00206924321287 0.0 0.0 0.0 0.0
77.84375 -0.0890650474951 0.216017932329 0.0647794294936 0.00127154101029 0.0 0.0 0.0 0.0
77.859375 -0.0885959215697 0.215718319171 0.0647045349586 0.000475858146605 0.0 0.0 0.0 0.0
77.875 -0.0881535510924 0.215400926485 0.064619852177 -0.000317678579463 0.0 0.0 0.0 0.0
77.890625 -0.0877381636085 0.215065909881 0.0645253960029 -0.00110895109943 0.0 0.0 0.0 0.0
77.90625 -0.087350060453 0.214713217604 0.0644212110522 -0.0018978432843 0.0 0.0 0.0 0.0
77.921875 -0.0869895504094 0.214342838767 0.0643073716687 -0.00268423575678 0.0 0.0 0.0 0.0
77.9375 -0.0866569490405 0.213954802479 0.0641839109893 -0.00346801304683 0.0 0.0 0.0 0.0
77.953125 -0.0863523885378 0.213549199031 0.0640508500189 -0.00424905072385 0.0 0.0 0.0 0.0
77.96875 -0.0860763773646 0.213125925638 0.0639082525508 -0.00502724286818 0.0 0.0 0.0 0.0
77.984375 -0.0858290315253 0.212685078781 0.0637561857463 -0.00580245661289 0.0 0.0 0.0 0.0
78.0 -0.0856106622471 0.212226688182 0.0635946865925 -0.00657460026698 0.0 0.0 0.0 0.0
78.015625 -0.0854214729124 0.211750784393 0.0634238110201 -0.00734354332528 0.0 0.0 0.0 0.0
78.03125 -0.0852616817212 0.211257618783 0.0632436424545 -0.0081091788636 0.0 0.0 0.0 0.0
78.046875 -0.0851316527234 0.210747015342 0.0630541824244 -0.0088713883938 0.0 0.0 0.0 0.0
78.0625 -0.0850316134291 0.210219132357 0.0628555302489 -0.00963007170879 0.0 0.0 0.0 0.0
78.078125 -0.0849617496044 0.209674045308 0.0626477324645 -0.0103851119189 0.0 0.0 0.0 0.0
78.09375 -0.0849223727497 0.209111839798 0.0624308510195 -0.0111363949334 0.0 0.0 0.0 0.0
78.109375 -0.0849136777435 0.20853265483 0.0622049470005 -0.0118838201271 0.0 0.0 0.0 0.0
78.125 -0.0849359195933 0.207936557037 0.0619700847011 -0.0126272764021 0.0 0.0 0.0 0.0
78.140625 -0.0849895320525 0.207323517913 0.0617263418418 -0.0133666638435 0.0 0.0 0.0 0.0
78.15625 -0.0850745009938 0.206693696053 0.0614737446355 -0.0141018645903 0.0 0.0 0.0 0.0
78.171875 -0.0851911855668 0.206047153431 0.0612124152141 -0.014832783757 0.0 0.0 0.0 0.0
78.1875 -0.0853397644211 0.20538392204 0.0609423664641 -0.0155593129208 0.0 0.0 0.0 0.0
78.203125 -0.085520413364 0.204704195407 0.0606637109158 -0.0162813498924 0.0 0.0 0.0 0.0
78.21875 -0.0857334208908 0.204007987931 0.0603764906148 -0.0169987950579 0.0 0.0 0.0 0.0
78.234375 -0.0859789357654 0.20329545087 0.0600808054755 -0.0177115510218 0.0 0.0 0.0 0.0
78.25 -0.0862572198967 0.202566633554 0.0597767015979 -0.0184195136092 0.0 0.0 0.0 0.0
78.265625 -0.0865683788482 0.201821675509 0.0594642804532 -0.0191225903081 0.0 0.0 0.0 0.0
78.28125 -0.0869125795352 0.201060713671 0.0591435929019 -0.0198206716346 0.0 0.0 0.0 0.0
78.296875 -0.087289904876 0.200283839089 0.0588147263228 -0.020513673374 0.0 0.0 0.0 0.0
78.3125 -0.0877006346019 0.199491157627 0.0584777727767 -0.0212015012233 0.0 0.0 0.0 0.0
78.328125 -0.0881448608477 0.198682850846 0.0581327840806 -0.0218840560616 0.0 0.0 0.0 0.0
78.34375 -0.0886228791906 0.197858769025 0.0577798538666 -0.0225612477519 0.0 0.0 0.0 0.0
78.359375 -0.0891345400451 0.197019319821 0.0574190735074 -0.0232329956376 0.0 0.0 0.0 0.0
78.375 -0.0896802081008 0.196164490627 0.057050502009 -0.0238991935645 0.0 0.0 0.0 0.0
78.390625 -0.0902598396302 0.195294471097 0.0566742360136 -0.0245597555237 0.0 0.0 0.0 0.0
78.40625 -0.0908736499241 0.19440937656 0.0562903440032 -0.0252145956614 0.0 0.0 0.0 0.0
78.421875 -0.091521765769 0.193509248926 0.0558989611167 -0.0258636476761 0.0 0.0 0.0 0.0
78.4375 -0.0922042138407 0.192594428063 0.0555001124669 -0.0265067964433 0.0 0.0 0.0 0.0
78.453125 -0.0929211703797 0.191664809249 0.0550939209315 -0.0271439766778 0.0 0.0 0.0 0.0
78.46875 -0.0936726252207 0.190720627212 0.0546804611331 -0.0277751015882 0.0 0.0 0.0 0.0
78.484375 -0.0944587130684 0.189762114826 0.0542598264683 -0.0284000804419 0.0 0.0 0.0 0.0
