!SWISSto12 MCK measurement data
!name=Concrete_19052022_2_2
!thickness[mm]=18.000
# GHz S RI R 50.0 
!freq ReS11 ImS11 ReS21 ImS21 ReS12 ImS12 ReS22 ImS22
75.0 -0.120719722068 -0.0109570637879 0.0353868721566 0.146592569916 0.0 0.0 0.0 0.0
75.015625 -0.12019931761 -0.0104782332862 0.0372011846414 0.146031494153 0.0 0.0 0.0 0.0
75.03125 -0.119661121249 -0.00999215825937 0.0390071699656 0.145447435056 0.0 0.0 0.0 0.0
75.046875 -0.11910463884 -0.00949972010564 0.0408045581234 0.144840538763 0.0 0.0 0.0 0.0
75.0625 -0.118527075806 -0.00900007280218 0.0425930436355 0.144210965215 0.0 0.0 0.0 0.0
75.078125 -0.117930170898 -0.00849167988229 0.0443723625127 0.143558797873 0.0 0.0 0.0 0.0
75.09375 -0.11731453574 -0.00797473408196 0.0461421855382 0.14288424761 0.0 0.0 0.0 0.0
75.109375 -0.116680498765 -0.00744976058299 0.0479022820715 0.14218743005 0.0 0.0 0.0 0.0
75.125 -0.116028066981 -0.00691677690688 0.0496523359569 0.141468457172 0.0 0.0 0.0 0.0
75.140625 -0.115357336379 -0.00637614197688 0.0513920956698 0.140727563067 0.0 0.0 0.0 0.0
75.15625 -0.1146682432 -0.00582806478033 0.053121227583 0.139964806245 0.0 0.0 0.0 0.0
75.171875 -0.113960963871 -0.00527268275353 0.0548395293377 0.139180481743 0.0 0.0 0.0 0.0
75.1875 -0.113235331022 -0.00471010253872 0.0565467144001 0.13837460285 0.0 0.0 0.0 0.0
75.203125 -0.112491529222 -0.00414061127417 0.0582425021788 0.137547467904 0.0 0.0 0.0 0.0
75.21875 -0.111729555634 -0.00356439575832 0.0599265971231 0.136699174549 0.0 0.0 0.0 0.0
75.234375 -0.110949370136 -0.00298155986566 0.0615987570042 0.135829944737 0.0 0.0 0.0 0.0
75.25 -0.110150987753 -0.00239229962491 0.0632587251125 0.134939866982 0.0 0.0 0.0 0.0
75.265625 -0.109334529037 -0.00179677643678 0.0649062929436 0.134029226936 0.0 0.0 0.0 0.0
75.28125 -0.108499856837 -0.00119519239981 0.0665411014629 0.133098170513 0.0 0.0 0.0 0.0
75.296875 -0.107647178492 -0.000587762556207 0.0681629549909 0.13214684204 0.0 0.0 0.0 0.0
75.3125 -0.106776469812 2.54526426921e-05 0.0697716170772 0.131175519014 0.0 0.0 0.0 0.0
75.328125 -0.105887715011 0.000644093018453 0.0713668149755 0.130184318955 0.0 0.0 0.0 0.0
75.34375 -0.104981046624 0.00126806505627 0.0729483209994 0.129173525174 0.0 0.0 0.0 0.0
75.359375 -0.104056462358 0.00189724061668 0.0745158593748 0.12814322908 0.0 0.0 0.0 0.0
75.375 -0.103113993184 0.00253132963692 0.0760692185446 0.12709371481 0.0 0.0 0.0 0.0
75.390625 -0.102153721013 0.00317014995724 0.0776081679333 0.126025131105 0.0 0.0 0.0 0.0
75.40625 -0.101175734254 0.0038134648947 0.0791324455334 0.12493772647 0.0 0.0 0.0 0.0
75.421875 -0.100180097484 0.00446119519776 0.0806418701628 0.123831743079 0.0 0.0 0.0 0.0
75.4375 -0.0991667950941 0.00511314164211 0.0821361571077 0.122707261589 0.0 0.0 0.0 0.0
75.453125 -0.098135957863 0.00576893740235 0.0836151292631 0.121564685791 0.0 0.0 0.0 0.0
75.46875 -0.0970876171288 0.00642851305114 0.0850785154852 0.120404097979 0.0 0.0 0.0 0.0
75.484375 -0.0960218785064 0.00709164958987 0.0865261505031 0.119225786687 0.0 0.0 0.0 0.0
75.5 -0.0949387758442 0.00775798534835 0.0879577905089 0.118029942266 0.0 0.0 0.0 0.0
75.515625 -0.0938384358247 0.00842736538755 0.0893732209554 0.116816778893 0.0 0.0 0.0 0.0
75.53125 -0.0927209104487 0.00909951303973 0.090772262307 0.115586570208 0.0 0.0 0.0 0.0
75.546875 -0.0915862719681 0.00977416997689 0.0921546723409 0.114339521463 0.0 0.0 0.0 0.0
75.5625 -0.0904346983227 0.0104510273157 0.0935202974223 0.113075854585 0.0 0.0 0.0 0.0
75.578125 -0.0892661935901 0.0111296970991 0.0948688765231 0.111795842688 0.0 0.0 0.0 0.0
75.59375 -0.0880807456518 0.0118098024193 0.0962002499337 0.110499680929 0.0 0.0 0.0 0.0
75.609375 -0.086878264244 0.012490727187 0.0975142366007 0.109187671481 0.0 0.0 0.0 0.0
75.625 -0.0856578731717 0.0131721988415 0.098810625639 0.107859977147 0.0 0.0 0.0 0.0
75.640625 -0.0844190407569 0.0138552024517 0.100089266098 0.106516927929 0.0 0.0 0.0 0.0
75.65625 -0.0831626378767 0.0145402090192 0.101349880074 0.105158671996 0.0 0.0 0.0 0.0
75.671875 -0.0818892795707 0.0152269862348 0.102592412195 0.103785549456 0.0 0.0 0.0 0.0
75.6875 -0.0805992543326 0.0159153155589 0.103816614406 0.10239777993 0.0 0.0 0.0 0.0
75.703125 -0.0792927598275 0.0166047942406 0.105022320842 0.100995598254 0.0 0.0 0.0 0.0
75.71875 -0.0779700269481 0.0172952280548 0.10620942169 0.0995792776436 0.0 0.0 0.0 0.0
75.734375 -0.0766312125058 0.0179863879793 0.107377665019 0.0981490611672 0.0 0.0 0.0 0.0
75.75 -0.0752764589865 0.0186779838654 0.108526985867 0.0967052321309 0.0 0.0 0.0 0.0
75.765625 -0.073905953474 0.0193697672461 0.109657140134 0.0952480391173 0.0 0.0 0.0 0.0
75.78125 -0.0725198848037 0.0200615764814 0.11076801645 0.0937777322988 0.0 0.0 0.0 0.0
75.796875 -0.0711183457161 0.020753151981 0.111859469645 0.0922945560781 0.0 0.0 0.0 0.0
75.8125 -0.0697016216347 0.021444248548 0.112931327176 0.0907987939054 0.0 0.0 0.0 0.0
75.828125 -0.0682697713389 0.0221346345666 0.113983489275 0.0892907485068 0.0 0.0 0.0 0.0
75.84375 -0.0668229440916 0.0228241236929 0.115015735412 0.0877706254725 0.0 0.0 0.0 0.0
75.859375 -0.0653614291595 0.0235124213274 0.11602807288 0.0862387568537 0.0 0.0 0.0 0.0
75.875 -0.0638853386925 0.0241993884785 0.117020224672 0.084695329435 0.0 0.0 0.0 0.0
75.890625 -0.0623948707864 0.0248847231237 0.117992163806 0.0831406798074 0.0 0.0 0.0 0.0
75.90625 -0.060890178506 0.0255682334247 0.118943665495 0.0815750468028 0.0 0.0 0.0 0.0
75.921875 -0.0593714842912 0.0262496571664 0.11987468706 0.0799986917678 0.0 0.0 0.0 0.0
75.9375 -0.0578390153088 0.0269288420207 0.120785104784 0.0784119446115 0.0 0.0 0.0 0.0
75.953125 -0.0562929063866 0.0276054681696 0.121674772656 0.0768150049516 0.0 0.0 0.0 0.0
75.96875 -0.0547334004135 0.028279412192 0.122543607371 0.0752082149794 0.0 0.0 0.0 0.0
75.984375 -0.0531607244262 0.0289503769055 0.123391503018 0.0735918429893 0.0 0.0 0.0 0.0
76.0 -0.0515750949503 0.029618077374 0.124218284843 0.0719660944233 0.0 0.0 0.0 0.0
76.015625 -0.0499767004692 0.0302823834895 0.125023970065 0.0703313531546 0.0 0.0 0.0 0.0
76.03125 -0.0483657467356 0.0309430133517 0.125808388744 0.0686878310006 0.0 0.0 0.0 0.0
76.046875 -0.0467425093606 0.0315997313825 0.126571448356 0.0670358015603 0.0 0.0 0.0 0.0
76.0625 -0.0451072096675 0.0322523196225 0.127313074751 0.0653755791471 0.0 0.0 0.0 0.0
76.078125 -0.0434600137811 0.0329004770231 0.128033211968 0.0637074525031 0.0 0.0 0.0 0.0
76.09375 -0.041801176592 0.0335439672001 0.128731721263 0.0620316731243 0.0 0.0 0.0 0.0
76.109375 -0.0401309233528 0.0341825077604 0.129408588093 0.0603485320867 0.0 0.0 0.0 0.0
76.125 -0.0384494273313 0.0348158431199 0.130063666186 0.0586583140644 0.0 0.0 0.0 0.0
76.140625 -0.0367568713587 0.0354436356519 0.130696947203 0.0569613145912 0.0 0.0 0.0 0.0
76.15625 -0.0350532063512 0.0360655264435 0.131308302422 0.0552577999784 0.0 0.0 0.0 0.0
76.171875 -0.0333383833801 0.0366815134916 0.131897722119 0.0535480873789 0.0 0.0 0.0 0.0
76.1875 -0.0316124228998 0.0372918521005 0.132465159146 0.0518324292279 0.0 0.0 0.0 0.0
76.203125 -0.0298759286004 0.0378966251732 0.133010519259 0.050111120108 0.0 0.0 0.0 0.0
76.21875 -0.0281294327403 0.0384957613753 0.133533753223 0.0483844364779 0.0 0.0 0.0 0.0
76.234375 -0.0263733292152 0.0390889185465 0.134034827456 0.0466527144274 0.0 0.0 0.0 0.0
76.25 -0.0246080157427 0.0396759084295 0.134513685471 0.044916180206 0.0 0.0 0.0 0.0
76.265625 -0.022833872029 0.0402564711047 0.134970315037 0.0431751296076 0.0 0.0 0.0 0.0
76.28125 -0.0210512290423 0.0408304157589 0.135404605083 0.0414298749791 0.0 0.0 0.0 0.0
76.296875 -0.0192604063135 0.0413975122722 0.13581655916 0.0396806908543 0.0 0.0 0.0 0.0
76.3125 -0.0174616614236 0.0419577215667 0.136206208667 0.0379278765966 0.0 0.0 0.0 0.0
76.328125 -0.0156553543376 0.0425105673487 0.136573437414 0.0361716956643 0.0 0.0 0.0 0.0
76.34375 -0.0138417282709 0.0430559991535 0.136918314825 0.0344124524712 0.0 0.0 0.0 0.0
76.359375 -0.0120211825072 0.0435937810621 0.137240725637 0.0326504380006 0.0 0.0 0.0 0.0
76.375 -0.0101940896825 0.0441236072342 0.137540694631 0.0308859088405 0.0 0.0 0.0 0.0
76.390625 -0.00836072473324 0.0446454209545 0.137818265313 0.0291191902448 0.0 0.0 0.0 0.0
76.40625 -0.00652144960656 0.0451589177407 0.138073343285 0.0273505330434 0.0 0.0 0.0 0.0
76.421875 -0.00467664383959 0.0456639796157 0.138305981433 0.0255802573537 0.0 0.0 0.0 0.0
76.4375 -0.00282668828291 0.0461603639803 0.138516154928 0.0238086159904 0.0 0.0 0.0 0.0
76.453125 -0.000971844690402 0.0466479622268 0.138703866381 0.022035900046 0.0 0.0 0.0 0.0
76.46875 0.000887421733507 0.0471264750304 0.138869153205 0.020262402462 0.0 0.0 0.0 0.0
76.484375 0.00275079310628 0.0475957794268 0.139011994954 0.0184884119299 0.0 0.0 0.0 0.0
76.5 0.00461797364991 0.0480557371823 0.139132378514 0.0167141905199 0.0 0.0 0.0 0.0
76.515625 0.00648849347635 0.0485060735262 0.139230382612 0.0149400343453 0.0 0.0 0.0 0.0
76.53125 0.00836200537234 0.0489467221485 0.139305996931 0.0131662411441 0.0 0.0 0.0 0.0
76.546875 0.0102381221067 0.0493774716121 0.139359189396 0.0113930538268 0.0 0.0 0.0 0.0
76.5625 0.0121163942236 0.049798086318 0.139390079409 0.00962077704621 0.0 0.0 0.0 0.0
76.578125 0.0139965209368 0.0502083695803 0.139398699156 0.00784970091736 0.0 0.0 0.0 0.0
76.59375 0.0158781257577 0.0506082525278 0.139384994377 0.00608008068684 0.0 0.0 0.0 0.0
76.609375 0.0177607278869 0.0509975207696 0.139349096095 0.00431221107062 0.0 0.0 0.0 0.0
76.625 0.0196439414939 0.051375976182 0.139290956043 0.00254636290192 0.0 0.0 0.0 0.0
76.640625 0.0215274344101 0.0517435104373 0.139210712791 0.000782817444241 0.0 0.0 0.0 0.0
76.65625 0.0234107815259 0.0520998750213 0.139108324831 -0.000978165353721 0.0 0.0 0.0 0.0
76.671875 0.0252935253691 0.0524449731584 0.138983906913 -0.00273628935345 0.0 0.0 0.0 0.0
76.6875 0.027175279966 0.0527785856327 0.138837485576 -0.00449128991307 0.0 0.0 0.0 0.0
76.703125 0.0290557341924 0.0531005616459 0.138669121176 -0.00624289589949 0.0 0.0 0.0 0.0
76.71875 0.0309343630102 0.0534106467458 0.138478876898 -0.00799084470286 0.0 0.0 0.0 0.0
76.734375 0.0328109300388 0.0537088387467 0.138266821562 -0.00973483561419 0.0 0.0 0.0 0.0
76.75 0.0346849884501 0.0539947010556 0.13803302327 -0.0114746358679 0.0 0.0 0.0 0.0
76.765625 0.0365563885289 0.0542682806315 0.137777557686 -0.0132099499699 0.0 0.0 0.0 0.0
76.78125 0.0384247125215 0.05452951239 0.137500440365 -0.0149405173197 0.0 0.0 0.0 0.0
76.796875 0.0402896088703 0.0547783802752 0.137201901174 -0.0166660987582 0.0 0.0 0.0 0.0
76.8125 0.0421506300587 0.055015073328 0.136881844824 -0.0183863887033 0.0 0.0 0.0 0.0
76.828125 0.0440072449964 0.0552393642569 0.136540417315 -0.0201011400153 0.0 0.0 0.0 0.0
76.84375 0.04585904649 0.0554511889902 0.136177709321 -0.0218100855199 0.0 0.0 0.0 0.0
76.859375 0.0477056510721 0.055650487207 0.135793903789 -0.0235129783701 0.0 0.0 0.0 0.0
76.875 0.0495463097934 0.0558368705795 0.135388945256 -0.0252095480039 0.0 0.0 0.0 0.0
76.890625 0.0513805875702 0.0560104402428 0.134963054618 -0.026899543925 0.0 0.0 0.0 0.0
76.90625 0.0532080719815 0.0561711148146 0.134516186828 -0.028582677955 0.0 0.0 0.0 0.0
76.921875 0.0550281925404 0.0563186501871 0.134048590361 -0.0302587493399 0.0 0.0 0.0 0.0
76.9375 0.056840543725 0.0564531045446 0.133560318279 -0.0319274746006 0.0 0.0 0.0 0.0
76.953125 0.058644471004 0.0565742044823 0.133051422842 -0.0335885913435 0.0 0.0 0.0 0.0
76.96875 0.0604397567608 0.0566821142274 0.132522167854 -0.0352418745876 0.0 0.0 0.0 0.0
76.984375 0.0622256969666 0.0567765677239 0.131972491561 -0.0368870479272 0.0 0.0 0.0 0.0
77.0 0.0640019706395 0.0568574934824 0.131402600134 -0.0385238929287 0.0 0.0 0.0 0.0
77.015625 0.0657679714809 0.0569248792326 0.130812619411 -0.0401521554259 0.0 0.0 0.0 0.0
77.03125 0.0675233185858 0.0569786619544 0.130202651398 -0.0417715696923 0.0 0.0 0.0 0.0
77.046875 0.0692673726978 0.0570186433506 0.129572813332 -0.0433819319512 0.0 0.0 0.0 0.0
77.0625 0.070999802615 0.0570448843043 0.128923269712 -0.0449829979066 0.0 0.0 0.0 0.0
77.078125 0.0727199718945 0.0570571661593 0.128254161373 -0.0465745123168 0.0 0.0 0.0 0.0
77.09375 0.074427628765 0.0570557721271 0.12756556558 -0.0481562307976 0.0 0.0 0.0 0.0
77.109375 0.0761220013602 0.0570402150898 0.126857644928 -0.0497279448682 0.0 0.0 0.0 0.0
77.125 0.077802730207 0.057010595937 0.12613058216 -0.0512894028593 0.0 0.0 0.0 0.0
77.140625 0.079469298786 0.0569668522782 0.125384476863 -0.052840409101 0.0 0.0 0.0 0.0
77.15625 0.0811212689987 0.0569090036881 0.124619467776 -0.0543806803938 0.0 0.0 0.0 0.0
77.171875 0.0827580430194 0.0568368571269 0.123835752759 -0.0559100339724 0.0 0.0 0.0 0.0
77.1875 0.0843792269561 0.0567503943423 0.123033456566 -0.0574282371437 0.0 0.0 0.0 0.0
77.203125 0.0859843516074 0.0566497421496 0.12221270515 -0.0589350619822 0.0 0.0 0.0 0.0
77.21875 0.0875727007277 0.0565346141317 0.121373686785 -0.0604302956205 0.0 0.0 0.0 0.0
77.234375 0.0891440901172 0.056405180686 0.120516573612 -0.0619136991823 0.0 0.0 0.0 0.0
77.25 0.0906978262719 0.056261128072 0.119641479193 -0.0633850903963 0.0 0.0 0.0 0.0
77.265625 0.092233457531 0.0561026167262 0.11874858949 -0.0648442177894 0.0 0.0 0.0 0.0
77.28125 0.0937506420916 0.0559296924091 0.117838115621 -0.0662909172992 0.0 0.0 0.0 0.0
77.296875 0.0952486643817 0.0557420965894 0.116910153793 -0.0677249314 0.0 0.0 0.0 0.0
77.3125 0.0967272049622 0.0555399354834 0.115964955823 -0.0691460962364 0.0 0.0 0.0 0.0
77.328125 0.0981856963093 0.0553231291768 0.115002640162 -0.0705541880919 0.0 0.0 0.0 0.0
77.34375 0.0996237900731 0.0550917193956 0.11402339085 -0.0719489954119 0.0 0.0 0.0 0.0
77.359375 0.101041003202 0.054845703117 0.113027434572 -0.0733303566006 0.0 0.0 0.0 0.0
77.375 0.102436880835 0.0545850945273 0.112014850648 -0.0746980162498 0.0 0.0 0.0 0.0
77.390625 0.103810867275 0.0543097878455 0.110985904667 -0.0760518184996 0.0 0.0 0.0 0.0
77.40625 0.105162608704 0.0540201426631 0.109940755293 -0.0773915605072 0.0 0.0 0.0 0.0
77.421875 0.106491428951 0.0537159384002 0.108879630507 -0.078717099619 0.0 0.0 0.0 0.0
77.4375 0.107796969615 0.0533971979207 0.107802671537 -0.0800281665431 0.0 0.0 0.0 0.0
77.453125 0.109078720777 0.0530641640836 0.10671006386 -0.0813245884773 0.0 0.0 0.0 0.0
77.46875 0.110336098744 0.0527165944263 0.105602064016 -0.0826062490969 0.0 0.0 0.0 0.0
77.484375 0.111568854009 0.0523549980352 0.104478823516 -0.0838729314742 0.0 0.0 0.0 0.0
77.5 0.112776178204 0.0519787679899 0.103340531972 -0.08512442403 0.0 0.0 0.0 0.0
77.515625 0.113957868314 0.0515882503272 0.102187404625 -0.0863605825314 0.0 0.0 0.0 0.0
77.53125 0.115113254651 0.0511834137573 0.101019646564 -0.087581233247 0.0 0.0 0.0 0.0
77.546875 0.116241998021 0.0507643250783 0.0998374767087 -0.0887861918732 0.0 0.0 0.0 0.0
77.5625 0.117343573294 0.0503310997214 0.0986411142752 -0.089975323517 0.0 0.0 0.0 0.0
77.578125 0.11841742326 0.0498836061685 0.0974307206007 -0.0911484299212 0.0 0.0 0.0 0.0
77.59375 0.119463211157 0.049422015633 0.0962065636791 -0.0923053750975 0.0 0.0 0.0 0.0
77.609375 0.120480452056 0.048946387081 0.0949688243768 -0.0934459922837 0.0 0.0 0.0 0.0
77.625 0.121468690216 0.048456668787 0.0937177064351 -0.0945701366446 0.0 0.0 0.0 0.0
77.640625 0.122427477358 0.0479531392202 0.0924534530216 -0.0956776285882 0.0 0.0 0.0 0.0
77.65625 0.123356314268 0.0474357866852 0.0911762715749 -0.0967683291612 0.0 0.0 0.0 0.0
77.671875 0.124254827794 0.0469047152962 0.0898863773791 -0.0978421350773 0.0 0.0 0.0 0.0
77.6875 0.125122542375 0.0463600198815 0.0885840315178 -0.0988988647983 0.0 0.0 0.0 0.0
77.703125 0.125958910428 0.0458016119735 0.0872693868739 -0.099938361794 0.0 0.0 0.0 0.0
77.71875 0.126763574407 0.0452296955784 0.0859427214163 -0.100960517528 0.0 0.0 0.0 0.0
77.734375 0.127536142855 0.04464445672 0.0846042250067 -0.101965150612 0.0 0.0 0.0 0.0
77.75 0.12827613949 0.0440459332564 0.0832541371106 -0.102952193476 0.0 0.0 0.0 0.0
77.765625 0.128983070437 0.0434340784661 0.0818927285038 -0.103921481652 0.0 0.0 0.0 0.0
77.78125 0.129656603584 0.0428091658982 0.0805201747497 -0.10487285802 0.0 0.0 0.0 0.0
77.796875 0.130296245284 0.0421710685953 0.0791367413756 -0.105806281894 0.0 0.0 0.0 0.0
77.8125 0.130901626685 0.0415200065203 0.0777426069296 -0.106721527012 0.0 0.0 0.0 0.0
77.828125 0.131472335812 0.0408561086916 0.0763380836574 -0.10761856184 0.0 0.0 0.0 0.0
77.84375 0.132007932534 0.0401794580586 0.0749233672467 -0.108497228437 0.0 0.0 0.0 0.0
77.859375 0.132508161143 0.0394901181003 0.073498711026 -0.109357403348 0.0 0.0 0.0 0.0
77.875 0.132972403496 0.0387881605216 0.0720643271363 -0.110199029549 0.0 0.0 0.0 0.0
77.890625 0.133400478445 0.0380737521979 0.070620469224 -0.111021955762 0.0 0.0 0.0 0.0
77.90625 0.133791942848 0.0373469472612 0.0691673945402 -0.111826068388 0.0 0.0 0.0 0.0
77.921875 0.134146430549 0.036607942458 0.0677052868969 -0.112611302805 0.0 0.0 0.0 0.0
77.9375 0.134463576283 0.0358567865884 0.066234471855 -0.113377578047 0.0 0.0 0.0 0.0
77.953125 0.134743114275 0.0350937142883 0.0647551211521 -0.114124708782 0.0 0.0 0.0 0.0
77.96875 0.134984539855 0.0343186361786 0.0632675325231 -0.114852673344 0.0 0.0 0.0 0.0
77.984375 0.135187628061 0.0335318127266 0.0617719371626 -0.115561391754 0.0 0.0 0.0 0.0
78.0 0.135352094112 0.0327333430021 0.0602685922708 -0.116250740795 0.0 0.0 0.0 0.0
78.015625 0.135477605819 0.0319233621757 0.058757716203 -0.116920654077 0.0 0.0 0.0 0.0
78.03125 0.13556390895 0.0311021865904 0.0572396073846 -0.117571091751 0.0 0.0 0.0 0.0
78.046875 0.13561057187 0.0302697987347 0.0557144544948 -0.118201911963 0.0 0.0 0.0 0.0
78.0625 0.135617397061 0.0294263627382 0.0541825930817 -0.118813097257 0.0 0.0 0.0 0.0
78.078125 0.135584023682 0.0285720578164 0.0526441800113 -0.119404495945 0.0 0.0 0.0 0.0
78.09375 0.135510197439 0.0277071392363 0.051099542189 -0.119976164933 0.0 0.0 0.0 0.0
78.109375 0.135395630821 0.0268318703573 0.0495488706556 -0.120527942646 0.0 0.0 0.0 0.0
78.125 0.135240045611 0.025946308877 0.0479924738068 -0.121059808295 0.0 0.0 0.0 0.0
78.140625 0.1350430247 0.0250505819739 0.0464306158485 -0.121571732576 0.0 0.0 0.0 0.0
78.15625 0.134804384773 0.0241448835236 0.0448634620901 -0.122063573745 0.0 0.0 0.0 0.0
78.171875 0.134523880126 0.0232294169563 0.0432913665132 -0.122535396658 0.0 0.0 0.0 0.0
78.1875 0.134201222279 0.0223042917946 0.0417145458082 -0.122987047575 0.0 0.0 0.0 0.0
78.203125 0.133836220613 0.0213697709063 0.0401332349708 -0.123418580157 0.0 0.0 0.0 0.0
78.21875 0.133428531059 0.0204259732343 0.038547713092 -0.123829915464 0.0 0.0 0.0 0.0
78.234375 0.132978014313 0.0194730813539 0.0369582779534 -0.124220974187 0.0 0.0 0.0 0.0
78.25 0.132484355881 0.0185112834163 0.0353650880487 -0.124591752203 0.0 0.0 0.0 0.0
78.265625 0.13194743752 0.0175406871877 0.0337684821376 -0.124942253461 0.0 0.0 0.0 0.0
78.28125 0.131366997841 0.016561632226 0.0321687188141 -0.125272391965 0.0 0.0 0.0 0.0
78.296875 0.130742989786 0.015574238311 0.0305660297483 -0.125582180176 0.0 0.0 0.0 0.0
78.3125 0.130075108453 0.0145786367495 0.028960655373 -0.125871600866 0.0 0.0 0.0 0.0
78.328125 0.129363243519 0.0135751337476 0.0273528864319 -0.126140628249 0.0 0.0 0.0 0.0
78.34375 0.128607078517 0.01256364418 0.0257429634875 -0.126389251767 0.0 0.0 0.0 0.0
78.359375 0.127806737547 0.0115446331805 0.02413114911 -0.126617487821 0.0 0.0 0.0 0.0
78.375 0.126961912418 0.0105181618887 0.0225176965615 -0.126825213971 0.0 0.0 0.0 0.0
78.390625 0.126072523762 0.00948441089715 0.0209028722669 -0.127012567753 0.0 0.0 0.0 0.0
78.40625 0.125138410795 0.00844371910943 0.0192869310717 -0.127179433391 0.0 0.0 0.0 0.0
78.421875 0.124159483987 0.00739603022898 0.0176701644453 -0.127325922294 0.0 0.0 0.0 0.0
78.4375 0.12313569065 0.00634176679731 0.0160527654506 -0.12745196307 0.0 0.0 0.0 0.0
78.453125 0.122066829309 0.00528092620009 0.0144350423791 -0.127557557113 0.0 0.0 0.0 0.0
78.46875 0.120952913897 0.00421383554905 0.0128172410237 -0.127642774513 0.0 0.0 0.0 0.0
78.484375 0.119793899754 0.00314068080701 0.0111996135605 -0.127707602202 0.0 0.0 0.0 0.0
