!SWISSto12 MCK measurement data
!name=PTFE
!thickness[mm]=3.160
# GHz S RI R 50.0 
!freq ReS11 ImS11 ReS21 ImS21 ReS12 ImS12 ReS22 ImS22
75.0 -0.2586243841 -0.091693577212 0.811358900005 -0.550774536101 0.0 0.0 0.0 0.0
75.015625 -0.258322744589 -0.0913363644857 0.810481356521 -0.551959615446 0.0 0.0 0.0 0.0
75.03125 -0.258003728959 -0.0909699856892 0.809602329375 -0.553141966895 0.0 0.0 0.0 0.0
75.046875 -0.257667004695 -0.0905950022343 0.808722024028 -0.554321566231 0.0 0.0 0.0 0.0
75.0625 -0.257311271737 -0.090210595463 0.807840241098 -0.55549882496 0.0 0.0 0.0 0.0
75.078125 -0.256937812572 -0.0898163893273 0.806956646872 -0.55667326933 0.0 0.0 0.0 0.0
75.09375 -0.256547069065 -0.0894124084283 0.80607184932 -0.557844993996 0.0 0.0 0.0 0.0
75.109375 -0.256139252364 -0.0889991628624 0.805186106661 -0.55901433158 0.0 0.0 0.0 0.0
75.125 -0.255714399801 -0.0885767664933 0.804298376553 -0.560180870804 0.0 0.0 0.0 0.0
75.140625 -0.255272674517 -0.0881452543152 0.803409415201 -0.561344812166 0.0 0.0 0.0 0.0
75.15625 -0.254814210741 -0.0877051182302 0.802519118835 -0.562505997855 0.0 0.0 0.0 0.0
75.171875 -0.254339144947 -0.0872563088955 0.801627569112 -0.563664638444 0.0 0.0 0.0 0.0
75.1875 -0.253847445345 -0.0867990053598 0.800734414199 -0.564820560203 0.0 0.0 0.0 0.0
75.203125 -0.253339369468 -0.086333372895 0.799840156035 -0.565973950921 0.0 0.0 0.0 0.0
75.21875 -0.252815009192 -0.0858596147963 0.798944306795 -0.567124619606 0.0 0.0 0.0 0.0
75.234375 -0.252274335535 -0.0853778467372 0.798047235846 -0.568272581502 0.0 0.0 0.0 0.0
75.25 -0.25171758101 -0.0848882457156 0.797148835377 -0.569418154546 0.0 0.0 0.0 0.0
75.265625 -0.251144801056 -0.0843908828775 0.79624920074 -0.570561000492 0.0 0.0 0.0 0.0
75.28125 -0.25055602517 -0.0838861932864 0.795348353695 -0.5717012093 0.0 0.0 0.0 0.0
75.296875 -0.249951481693 -0.0833742130253 0.794446049754 -0.572838920606 0.0 0.0 0.0 0.0
75.3125 -0.249331298532 -0.0828551032588 0.79354273047 -0.57397420598 0.0 0.0 0.0 0.0
75.328125 -0.248695598121 -0.0823291430136 0.79263800806 -0.575106779903 0.0 0.0 0.0 0.0
75.34375 -0.248044460019 -0.0817964767885 0.791731923388 -0.576236907194 0.0 0.0 0.0 0.0
75.359375 -0.247378067568 -0.0812572196819 0.790824629696 -0.577364693867 0.0 0.0 0.0 0.0
75.375 -0.246696506408 -0.0807117010013 0.789916077989 -0.578489856781 0.0 0.0 0.0 0.0
75.390625 -0.246000043746 -0.0801600713656 0.78900621883 -0.579612677168 0.0 0.0 0.0 0.0
75.40625 -0.245288802935 -0.0796025610941 0.788094891054 -0.58073286898 0.0 0.0 0.0 0.0
75.421875 -0.24456285833 -0.0790391947296 0.787182550954 -0.581850843533 0.0 0.0 0.0 0.0
75.4375 -0.243822375266 -0.0784703684298 0.786268590987 -0.582966308947 0.0 0.0 0.0 0.0
75.453125 -0.243067536538 -0.0778962481622 0.785353561737 -0.584079342495 0.0 0.0 0.0 0.0
75.46875 -0.242298441159 -0.0773169016723 0.784436926321 -0.585189864188 0.0 0.0 0.0 0.0
75.484375 -0.241515270775 -0.0767326985452 0.78351931829 -0.586298096616 0.0 0.0 0.0 0.0
75.5 -0.240718168802 -0.076143860281 0.782600348444 -0.587403906767 0.0 0.0 0.0 0.0
75.515625 -0.239907354311 -0.0755505604957 0.781680001866 -0.588507277398 0.0 0.0 0.0 0.0
75.53125 -0.239082947901 -0.07495310723 0.780758363785 -0.589608348336 0.0 0.0 0.0 0.0
75.546875 -0.23824492923 -0.074351717897 0.77983546317 -0.590706891034 0.0 0.0 0.0 0.0
75.5625 -0.237393779548 -0.0737466687473 0.778911254291 -0.591803273766 0.0 0.0 0.0 0.0
75.578125 -0.236529453581 -0.0731383636086 0.777985699991 -0.592897299413 0.0 0.0 0.0 0.0
75.59375 -0.23565209539 -0.0725270704003 0.777058761161 -0.593989178133 0.0 0.0 0.0 0.0
75.609375 -0.234761654417 -0.0719131482565 0.776130760061 -0.595078495205 0.0 0.0 0.0 0.0
75.625 -0.233857741388 -0.0712968907297 0.775201321225 -0.596165695876 0.0 0.0 0.0 0.0
75.640625 -0.23294036052 -0.0706774282085 0.774270761717 -0.597250772475 0.0 0.0 0.0 0.0
75.65625 -0.232010288106 -0.0700548504129 0.773338550593 -0.598333474656 0.0 0.0 0.0 0.0
75.671875 -0.231067971061 -0.0694292994407 0.772405070674 -0.599414009702 0.0 0.0 0.0 0.0
75.6875 -0.230113754791 -0.0688011534804 0.771470245506 -0.600492230599 0.0 0.0 0.0 0.0
75.703125 -0.229147861156 -0.068170740308 0.770534146381 -0.601568352285 0.0 0.0 0.0 0.0
75.71875 -0.228170520316 -0.0675382699375 0.76959656179 -0.602642204274 0.0 0.0 0.0 0.0
75.734375 -0.227181977294 -0.0669039955304 0.768657745409 -0.603713813917 0.0 0.0 0.0 0.0
75.75 -0.22618240136 -0.0662681529108 0.767717622331 -0.6047832827 0.0 0.0 0.0 0.0
75.765625 -0.225172081114 -0.0656310339954 0.766775990349 -0.605850528574 0.0 0.0 0.0 0.0
75.78125 -0.224151235885 -0.0649928900428 0.765833108311 -0.606915667249 0.0 0.0 0.0 0.0
75.796875 -0.223119989523 -0.0643538445415 0.764888768659 -0.60797852887 0.0 0.0 0.0 0.0
75.8125 -0.222078670828 -0.0637143267787 0.763943262909 -0.609039339455 0.0 0.0 0.0 0.0
75.828125 -0.221027505936 -0.0630744743067 0.762996282838 -0.610098098033 0.0 0.0 0.0 0.0
75.84375 -0.219966696441 -0.062434511083 0.762047899285 -0.611154522163 0.0 0.0 0.0 0.0
75.859375 -0.218896472796 -0.0617947442979 0.761098147175 -0.612208967389 0.0 0.0 0.0 0.0
75.875 -0.217817132284 -0.0611553339263 0.760146941891 -0.613261443908 0.0 0.0 0.0 0.0
75.890625 -0.216728862021 -0.0605166440198 0.759194612196 -0.614311794078 0.0 0.0 0.0 0.0
75.90625 -0.215631861896 -0.059878810696 0.758240653239 -0.615360106083 0.0 0.0 0.0 0.0
75.921875 -0.214526471774 -0.0592421065385 0.757285284621 -0.616406216851 0.0 0.0 0.0 0.0
75.9375 -0.213412937127 -0.0586067690216 0.756328752214 -0.617450404952 0.0 0.0 0.0 0.0
75.953125 -0.212291522052 -0.0579730549645 0.755370577376 -0.618492442435 0.0 0.0 0.0 0.0
75.96875 -0.211162425641 -0.0573411793305 0.754411110749 -0.619532526153 0.0 0.0 0.0 0.0
75.984375 -0.210025876655 -0.0567113380904 0.753450307467 -0.620570530184 0.0 0.0 0.0 0.0
76.0 -0.208882324519 -0.0560839090481 0.752487908726 -0.621606572477 0.0 0.0 0.0 0.0
76.015625 -0.207731834457 -0.0554590365216 0.751524086536 -0.622640789331 0.0 0.0 0.0 0.0
76.03125 -0.206574770826 -0.0548370292903 0.75055900462 -0.623672551524 0.0 0.0 0.0 0.0
76.046875 -0.205411385221 -0.0542180566075 0.749592330213 -0.624702505634 0.0 0.0 0.0 0.0
76.0625 -0.204242002853 -0.0536023647626 0.748624474248 -0.625730396752 0.0 0.0 0.0 0.0
76.078125 -0.203066917206 -0.0529902145467 0.747655099992 -0.62675644642 0.0 0.0 0.0 0.0
76.09375 -0.201886341044 -0.0523817996919 0.746684459501 -0.62778035189 0.0 0.0 0.0 0.0
76.109375 -0.200700479738 -0.0517774280194 0.745712614841 -0.628802329976 0.0 0.0 0.0 0.0
76.125 -0.19950962057 -0.0511772643171 0.744739126651 -0.629822429918 0.0 0.0 0.0 0.0
76.140625 -0.198314004756 -0.0505816398079 0.743764489663 -0.63084063934 0.0 0.0 0.0 0.0
76.15625 -0.197113706702 -0.0499908062035 0.74278821839 -0.631856967386 0.0 0.0 0.0 0.0
76.171875 -0.195908943748 -0.0494048182804 0.741810673602 -0.632871459554 0.0 0.0 0.0 0.0
76.1875 -0.194699903278 -0.0488237521079 0.740831855459 -0.633884026065 0.0 0.0 0.0 0.0
76.203125 -0.193487112561 -0.0482476732898 0.739851527016 -0.634894715371 0.0 0.0 0.0 0.0
76.21875 -0.192270919805 -0.0476767843017 0.738869889711 -0.63590352384 0.0 0.0 0.0 0.0
76.234375 -0.191051677261 -0.0471113363514 0.737886732258 -0.636910607169 0.0 0.0 0.0 0.0
76.25 -0.189829792164 -0.0465515998014 0.736902168168 -0.637915886678 0.0 0.0 0.0 0.0
76.265625 -0.188605588264 -0.045997793023 0.735916422455 -0.638919380817 0.0 0.0 0.0 0.0
76.28125 -0.187379406539 -0.0454502172611 0.734929089321 -0.639920904329 0.0 0.0 0.0 0.0
76.296875 -0.186151664973 -0.0449090941644 0.733940524548 -0.640920847541 0.0 0.0 0.0 0.0
76.3125 -0.184922503402 -0.0443743335929 0.732950447747 -0.641918788921 0.0 0.0 0.0 0.0
76.328125 -0.183692490674 -0.0438463656569 0.731958807567 -0.642915108734 0.0 0.0 0.0 0.0
76.34375 -0.182461615715 -0.0433252384969 0.730965767578 -0.643909859441 0.0 0.0 0.0 0.0
76.359375 -0.18123027862 -0.0428112276183 0.729971361808 -0.644902720704 0.0 0.0 0.0 0.0
76.375 -0.17999881515 -0.042304663032 0.728975617931 -0.645893711778 0.0 0.0 0.0 0.0
76.390625 -0.178767576944 -0.0418055941309 0.727978351286 -0.646883183929 0.0 0.0 0.0 0.0
76.40625 -0.177536830388 -0.0413143120921 0.726979439199 -0.647870762616 0.0 0.0 0.0 0.0
76.421875 -0.176306865003 -0.0408309792309 0.725979294633 -0.648856636451 0.0 0.0 0.0 0.0
76.4375 -0.175078138282 -0.0403558756989 0.724977827363 -0.649840720515 0.0 0.0 0.0 0.0
76.453125 -0.173850838743 -0.0398889967394 0.723974644223 -0.650823179517 0.0 0.0 0.0 0.0
76.46875 -0.172625352856 -0.0394307614751 0.722970103959 -0.651803981864 0.0 0.0 0.0 0.0
76.484375 -0.171401981908 -0.0389812161582 0.721964156627 -0.652782728464 0.0 0.0 0.0 0.0
76.5 -0.170180995747 -0.0385405958141 0.720956796505 -0.65376002026 0.0 0.0 0.0 0.0
76.515625 -0.168962786266 -0.0381090767374 0.719948108563 -0.654735580202 0.0 0.0 0.0 0.0
76.53125 -0.167747702108 -0.0376868885714 0.718938009144 -0.655709415023 0.0 0.0 0.0 0.0
76.546875 -0.166535968934 -0.0372741602986 0.717926497711 -0.656681519216 0.0 0.0 0.0 0.0
76.5625 -0.165328125605 -0.0368711217896 0.716913716911 -0.657652106479 0.0 0.0 0.0 0.0
76.578125 -0.164124411913 -0.0364779939402 0.715899444562 -0.658621056789 0.0 0.0 0.0 0.0
76.59375 -0.162925068098 -0.0360948718486 0.714883682222 -0.65958836649 0.0 0.0 0.0 0.0
76.609375 -0.161730523436 -0.0357218840855 0.713866745877 -0.66055405819 0.0 0.0 0.0 0.0
76.625 -0.160541093399 -0.035359358253 0.712848280981 -0.661518064276 0.0 0.0 0.0 0.0
76.640625 -0.159357072581 -0.0350072438099 0.711828512779 -0.662480588906 0.0 0.0 0.0 0.0
76.65625 -0.158178926903 -0.0346659906555 0.710807245494 -0.663441534207 0.0 0.0 0.0 0.0
76.671875 -0.157006773295 -0.034335497398 0.709784545356 -0.664400868548 0.0 0.0 0.0 0.0
76.6875 -0.155841123041 -0.0340161320729 0.708760597544 -0.665358938529 0.0 0.0 0.0 0.0
76.703125 -0.154682095451 -0.03370793073 0.707735197559 -0.666315104543 0.0 0.0 0.0 0.0
76.71875 -0.153530247073 -0.0334111626312 0.706708262944 -0.667269727729 0.0 0.0 0.0 0.0
76.734375 -0.152385607355 -0.0331259263348 0.705680019106 -0.668223105614 0.0 0.0 0.0 0.0
76.75 -0.151248636263 -0.0328524791569 0.704650398639 -0.669174814417 0.0 0.0 0.0 0.0
76.765625 -0.150119497362 -0.0325907679221 0.703619227121 -0.670125040576 0.0 0.0 0.0 0.0
76.78125 -0.148998367278 -0.0323409575259 0.702586751719 -0.671073568013 0.0 0.0 0.0 0.0
76.796875 -0.147885724943 -0.0321030270702 0.701552908115 -0.672020778355 0.0 0.0 0.0 0.0
76.8125 -0.146781889101 -0.0318769885953 0.700517651077 -0.672966535032 0.0 0.0 0.0 0.0
76.828125 -0.14568731866 -0.0316629171368 0.699480875229 -0.67391082215 0.0 0.0 0.0 0.0
76.84375 -0.144602312993 -0.0314609251401 0.698442624494 -0.674853497586 0.0 0.0 0.0 0.0
76.859375 -0.14352719945 -0.0312710832686 0.697403122542 -0.675794953061 0.0 0.0 0.0 0.0
76.875 -0.142462473422 -0.031093825743 0.69636193022 -0.676734669116 0.0 0.0 0.0 0.0
76.890625 -0.141408519567 -0.0309290965504 0.695319464078 -0.677673315935 0.0 0.0 0.0 0.0
76.90625 -0.140365620405 -0.0307769388229 0.69427533567 -0.678610150244 0.0 0.0 0.0 0.0
76.921875 -0.139334235923 -0.0306375473427 0.693229917056 -0.679545710991 0.0 0.0 0.0 0.0
76.9375 -0.138314706548 -0.0305109901109 0.69218290035 -0.68047978318 0.0 0.0 0.0 0.0
76.953125 -0.137307393393 -0.0303974564642 0.69113438071 -0.68141227393 0.0 0.0 0.0 0.0
76.96875 -0.136312658615 -0.0302969112702 0.690084423605 -0.682343424546 0.0 0.0 0.0 0.0
76.984375 -0.135330833508 -0.0302095288737 0.689033162131 -0.683273090164 0.0 0.0 0.0 0.0
77.0 -0.13436234919 -0.0301353797225 0.687980201203 -0.684201238429 0.0 0.0 0.0 0.0
77.015625 -0.13340759478 -0.0300745042018 0.686925895852 -0.685128035157 0.0 0.0 0.0 0.0
77.03125 -0.132466759981 -0.0300269407549 0.68586989583 -0.686053217833 0.0 0.0 0.0 0.0
77.046875 -0.13154039555 -0.0299928287008 0.684812644049 -0.686976950125 0.0 0.0 0.0 0.0
77.0625 -0.130628751816 -0.0299722087166 0.683753902855 -0.687899172633 0.0 0.0 0.0 0.0
77.078125 -0.129732270028 -0.0299651519282 0.682693647192 -0.688819946946 0.0 0.0 0.0 0.0
77.09375 -0.128851090652 -0.0299715397121 0.681631901399 -0.68973920111 0.0 0.0 0.0 0.0
77.109375 -0.127985719587 -0.0299916891685 0.680568867673 -0.690657043432 0.0 0.0 0.0 0.0
77.125 -0.127136570388 -0.0300255974484 0.679504198449 -0.691573208731 0.0 0.0 0.0 0.0
77.140625 -0.12630378852 -0.0300732220241 0.678438151169 -0.692488137989 0.0 0.0 0.0 0.0
77.15625 -0.125487857875 -0.0301346614049 0.677370734682 -0.693401467594 0.0 0.0 0.0 0.0
77.171875 -0.124689105872 -0.0302099982965 0.676301768786 -0.694313377772 0.0 0.0 0.0 0.0
77.1875 -0.123907842649 -0.0302992231209 0.675231570026 -0.695223819174 0.0 0.0 0.0 0.0
77.203125 -0.123144317706 -0.0304023045726 0.674159829952 -0.69613274798 0.0 0.0 0.0 0.0
77.21875 -0.122399093044 -0.0305194213743 0.673086434698 -0.697040226843 0.0 0.0 0.0 0.0
77.234375 -0.12167222107 -0.0306504617017 0.672011678002 -0.697946183373 0.0 0.0 0.0 0.0
77.25 -0.120964318824 -0.0307956528701 0.670935543465 -0.698850596102 0.0 0.0 0.0 0.0
77.265625 -0.120275474768 -0.0309548143179 0.669857922879 -0.699753347423 0.0 0.0 0.0 0.0
77.28125 -0.119606136799 -0.0311280111533 0.668779052194 -0.700654772352 0.0 0.0 0.0 0.0
77.296875 -0.118956672155 -0.0313152736012 0.667698614084 -0.701554534414 0.0 0.0 0.0 0.0
77.3125 -0.118327355117 -0.0315166569067 0.666616956354 -0.702452806798 0.0 0.0 0.0 0.0
77.328125 -0.117718463714 -0.0317320976113 0.665533814733 -0.703349587987 0.0 0.0 0.0 0.0
77.34375 -0.11713036247 -0.0319615289156 0.664449282604 -0.704244784215 0.0 0.0 0.0 0.0
77.359375 -0.1165632949 -0.0322049341909 0.663363464079 -0.705138689438 0.0 0.0 0.0 0.0
77.375 -0.116017483919 -0.032462290863 0.662276379265 -0.706030850965 0.0 0.0 0.0 0.0
77.390625 -0.115493414129 -0.0327336441103 0.661187849066 -0.706921732731 0.0 0.0 0.0 0.0
77.40625 -0.114991235207 -0.0330187935865 0.660098034864 -0.707810937108 0.0 0.0 0.0 0.0
77.421875 -0.114511354055 -0.0333178272452 0.659006856511 -0.70869865696 0.0 0.0 0.0 0.0
77.4375 -0.114054052497 -0.0336307305478 0.657914311442 -0.709584979957 0.0 0.0 0.0 0.0
77.453125 -0.113619574728 -0.0339573841254 0.656820389772 -0.710469796546 0.0 0.0 0.0 0.0
77.46875 -0.113208416528 -0.0342978774458 0.655725347842 -0.711353190251 0.0 0.0 0.0 0.0
77.484375 -0.112820548086 -0.0346518466889 0.65462893752 -0.712234983342 0.0 0.0 0.0 0.0
77.5 -0.112456669373 -0.0350197098312 0.653531167033 -0.713115370543 0.0 0.0 0.0 0.0
77.515625 -0.112116870778 -0.0354011895218 0.652431949967 -0.713994348762 0.0 0.0 0.0 0.0
77.53125 -0.111801588513 -0.0357961935835 0.651331493142 -0.714871853764 0.0 0.0 0.0 0.0
77.546875 -0.111510976551 -0.0362045723608 0.650229640449 -0.715747901467 0.0 0.0 0.0 0.0
77.5625 -0.111245311985 -0.0366262119258 0.649126233513 -0.716622504408 0.0 0.0 0.0 0.0
77.578125 -0.111004987167 -0.037061221983 0.648021605053 -0.717495449657 0.0 0.0 0.0 0.0
77.59375 -0.110790090958 -0.037509401718 0.646915346246 -0.718366855824 0.0 0.0 0.0 0.0
77.609375 -0.110600910419 -0.0379706168342 0.645808082404 -0.719236739125 0.0 0.0 0.0 0.0
77.625 -0.11043777322 -0.0384450198702 0.644699175936 -0.720104963349 0.0 0.0 0.0 0.0
77.640625 -0.110300887869 -0.0389321780088 0.643589090818 -0.720971655248 0.0 0.0 0.0 0.0
77.65625 -0.110190530998 -0.0394321857986 0.642477604067 -0.721836560528 0.0 0.0 0.0 0.0
77.671875 -0.110106904705 -0.0399449009145 0.641364967986 -0.722700151325 0.0 0.0 0.0 0.0
77.6875 -0.110050291339 -0.0404702073617 0.640251132325 -0.72356197994 0.0 0.0 0.0 0.0
77.703125 -0.110020956937 -0.0410081297729 0.63913594869 -0.724422262096 0.0 0.0 0.0 0.0
77.71875 -0.110019161724 -0.0415585068747 0.638019480724 -0.725280773361 0.0 0.0 0.0 0.0
77.734375 -0.110044966052 -0.0421212188838 0.636901837882 -0.726137828154 0.0 0.0 0.0 0.0
77.75 -0.110098785533 -0.0426961070728 0.635782957052 -0.72699315551 0.0 0.0 0.0 0.0
77.765625 -0.110180843795 -0.04328317734 0.634662948714 -0.727847072768 0.0 0.0 0.0 0.0
77.78125 -0.110291346325 -0.0438822168448 0.633541656161 -0.72869929868 0.0 0.0 0.0 0.0
77.796875 -0.110430552467 -0.0444932518732 0.632419157057 -0.729550015888 0.0 0.0 0.0 0.0
77.8125 -0.110598631477 -0.0451160601651 0.631295378295 -0.730399037643 0.0 0.0 0.0 0.0
77.828125 -0.110795778894 -0.0457504427638 0.630170666296 -0.731246563915 0.0 0.0 0.0 0.0
77.84375 -0.111022260043 -0.0463963238035 0.629044494028 -0.732092471847 0.0 0.0 0.0 0.0
77.859375 -0.11127816166 -0.0470535870406 0.627917247795 -0.732936712901 0.0 0.0 0.0 0.0
77.875 -0.11156377772 -0.0477221086308 0.626788812893 -0.733779346607 0.0 0.0 0.0 0.0
77.890625 -0.111879275633 -0.0484017991874 0.625659343405 -0.734620450497 0.0 0.0 0.0 0.0
77.90625 -0.112224786855 -0.0490923836435 0.624528389894 -0.735459789826 0.0 0.0 0.0 0.0
77.921875 -0.112600452704 -0.049793763247 0.623396681282 -0.736297523214 0.0 0.0 0.0 0.0
77.9375 -0.113006538525 -0.0505058866037 0.622263634806 -0.737133854145 0.0 0.0 0.0 0.0
77.953125 -0.11344308161 -0.0512284060246 0.621129401494 -0.737968459364 0.0 0.0 0.0 0.0
77.96875 -0.113910410806 -0.0519613087968 0.619994139787 -0.738801322965 0.0 0.0 0.0 0.0
77.984375 -0.114408483709 -0.0527044546935 0.61885773392 -0.739632702554 0.0 0.0 0.0 0.0
78.0 -0.114937549193 -0.053457569733 0.617720100112 -0.740462594377 0.0 0.0 0.0 0.0
78.015625 -0.115497616681 -0.0542205412535 0.616581305509 -0.74129077402 0.0 0.0 0.0 0.0
78.03125 -0.1160888674 -0.0549930506525 0.615441345477 -0.742117331676 0.0 0.0 0.0 0.0
78.046875 -0.116711448307 -0.0557750819342 0.614300337955 -0.742942204171 0.0 0.0 0.0 0.0
78.0625 -0.117365472603 -0.0565663861212 0.613158089353 -0.743765556115 0.0 0.0 0.0 0.0
78.078125 -0.118051095389 -0.0573667798648 0.6120145246 -0.7445868877 0.0 0.0 0.0 0.0
78.09375 -0.11876838786 -0.058176072164 0.610870037465 -0.74540667231 0.0 0.0 0.0 0.0
78.109375 -0.119517417674 -0.0589939558268 0.609724456041 -0.746224696673 0.0 0.0 0.0 0.0
78.125 -0.120298392929 -0.0598203088792 0.608577801831 -0.747040982408 0.0 0.0 0.0 0.0
78.140625 -0.121111523608 -0.0606550178185 0.607430007264 -0.747855746976 0.0 0.0 0.0 0.0
78.15625 -0.121956748018 -0.061497784546 0.606281038331 -0.748668536902 0.0 0.0 0.0 0.0
78.171875 -0.122834259604 -0.0623484594797 0.605131197607 -0.749479822736 0.0 0.0 0.0 0.0
78.1875 -0.123744052235 -0.063206815476 0.603980119798 -0.750289148235 0.0 0.0 0.0 0.0
78.203125 -0.124686256835 -0.0640726095463 0.602828268796 -0.751096777498 0.0 0.0 0.0 0.0
78.21875 -0.125660994093 -0.0649456751495 0.601675092624 -0.751902633443 0.0 0.0 0.0 0.0
78.234375 -0.126668209741 -0.0658257613372 0.600521061013 -0.752706784821 0.0 0.0 0.0 0.0
78.25 -0.127708109588 -0.0667126345763 0.599366047587 -0.753508966311 0.0 0.0 0.0 0.0
78.265625 -0.128780650404 -0.0676061107877 0.598210102287 -0.754309544887 0.0 0.0 0.0 0.0
78.28125 -0.129885766814 -0.0685059448882 0.597053091852 -0.755108348684 0.0 0.0 0.0 0.0
78.296875 -0.131023527188 -0.0694118784 0.595895176911 -0.755905369566 0.0 0.0 0.0 0.0
78.3125 -0.132193915235 -0.0703237814113 0.59473632141 -0.756700557491 0.0 0.0 0.0 0.0
78.328125 -0.133396987144 -0.0712413525301 0.593576514513 -0.757493997899 0.0 0.0 0.0 0.0
78.34375 -0.134632892746 -0.0721645766267 0.592415882121 -0.758285639583 0.0 0.0 0.0 0.0
78.359375 -0.13590140306 -0.0730930484091 0.591254241063 -0.75907566045 0.0 0.0 0.0 0.0
78.375 -0.137202587905 -0.0740266086196 0.590091809873 -0.759863815889 0.0 0.0 0.0 0.0
78.390625 -0.138536454839 -0.0749649607146 0.588928332429 -0.760650189435 0.0 0.0 0.0 0.0
78.40625 -0.139902962716 -0.0759079263965 0.587763987475 -0.761434798108 0.0 0.0 0.0 0.0
78.421875 -0.14130214628 -0.0768553639668 0.586598719971 -0.762217881381 0.0 0.0 0.0 0.0
78.4375 -0.142733873373 -0.0778068771867 0.58543243365 -0.762999205618 0.0 0.0 0.0 0.0
78.453125 -0.144198185902 -0.0787623665118 0.584265350571 -0.763778634897 0.0 0.0 0.0 0.0
78.46875 -0.145694978994 -0.0797215835519 0.583097196244 -0.764556227158 0.0 0.0 0.0 0.0
78.484375 -0.147224071418 -0.0806842107707 0.581928235362 -0.765331902064 0.0 0.0 0.0 0.0
