!SWISSto12 MCK measurement data
!name=Radome_Material_No5_19052022_1
!thickness[mm]=3.000
# GHz S RI R 50.0 
!freq ReS11 ImS11 ReS21 ImS21 ReS12 ImS12 ReS22 ImS22
75.0 -0.428843963791 -0.0847650277489 0.30296819462 -0.836775307121 0.0 0.0 0.0 0.0
75.015625 -0.428948051564 -0.084423702289 0.301656584358 -0.837106393191 0.0 0.0 0.0 0.0
75.03125 -0.429039929683 -0.0840787969774 0.300345903804 -0.837434316153 0.0 0.0 0.0 0.0
75.046875 -0.42911890684 -0.0837305711207 0.299036254283 -0.837759696668 0.0 0.0 0.0 0.0
75.0625 -0.429183699448 -0.0833771844849 0.297727674581 -0.838082282652 0.0 0.0 0.0 0.0
75.078125 -0.429236207542 -0.0830180113213 0.296420487498 -0.838402266192 0.0 0.0 0.0 0.0
75.09375 -0.429276904007 -0.0826536057003 0.295114237374 -0.838719416063 0.0 0.0 0.0 0.0
75.109375 -0.429305788532 -0.0822843257504 0.293809323217 -0.839034143423 0.0 0.0 0.0 0.0
75.125 -0.429323018068 -0.0819101005242 0.292505492916 -0.83934607986 0.0 0.0 0.0 0.0
75.140625 -0.429328451935 -0.0815311431529 0.291202540802 -0.839655343864 0.0 0.0 0.0 0.0
75.15625 -0.429322161371 -0.0811473300052 0.289900875136 -0.839962382356 0.0 0.0 0.0 0.0
75.171875 -0.42930439179 -0.0807589109424 0.288600452712 -0.840266702595 0.0 0.0 0.0 0.0
75.1875 -0.429274959361 -0.0803656997427 0.287300984268 -0.840568180432 0.0 0.0 0.0 0.0
75.203125 -0.429234006063 -0.0799677274931 0.286002456254 -0.840867497874 0.0 0.0 0.0 0.0
75.21875 -0.429181594928 -0.0795649293192 0.284705283457 -0.841164032017 0.0 0.0 0.0 0.0
75.234375 -0.429117634596 -0.0791575520044 0.283409039081 -0.841457987474 0.0 0.0 0.0 0.0
75.25 -0.429042225358 -0.0787453389411 0.282113813429 -0.841749623855 0.0 0.0 0.0 0.0
75.265625 -0.428955412435 -0.0783283340257 0.280819649327 -0.842038689905 0.0 0.0 0.0 0.0
75.28125 -0.428857168649 -0.0779065830241 0.279526656303 -0.842325131291 0.0 0.0 0.0 0.0
75.296875 -0.428747688629 -0.0774801207133 0.278234587 -0.84260932008 0.0 0.0 0.0 0.0
75.3125 -0.428627079802 -0.0770489291545 0.276943642991 -0.842891106753 0.0 0.0 0.0 0.0
75.328125 -0.428495103551 -0.0766128919528 0.275653752891 -0.843170266032 0.0 0.0 0.0 0.0
75.34375 -0.428352029876 -0.0761721760567 0.274364738821 -0.843447004255 0.0 0.0 0.0 0.0
75.359375 -0.428197786206 -0.0757266959204 0.273076766342 -0.843721440632 0.0 0.0 0.0 0.0
75.375 -0.428032464658 -0.0752765355589 0.271789772213 -0.843993372359 0.0 0.0 0.0 0.0
75.390625 -0.427856204218 -0.0748215156404 0.270503824376 -0.844263001914 0.0 0.0 0.0 0.0
75.40625 -0.427669012424 -0.0743617939755 0.269218602069 -0.844530093734 0.0 0.0 0.0 0.0
75.421875 -0.427470974503 -0.0738973660164 0.267934657478 -0.844795206033 0.0 0.0 0.0 0.0
75.4375 -0.427262113045 -0.0734281728332 0.266651369967 -0.845057547218 0.0 0.0 0.0 0.0
75.453125 -0.427042499444 -0.072954296238 0.265369323774 -0.845317781132 0.0 0.0 0.0 0.0
75.46875 -0.426812016673 -0.07247565457 0.264087846793 -0.845575335319 0.0 0.0 0.0 0.0
75.484375 -0.426571070813 -0.0719924967615 0.262807422596 -0.845830956086 0.0 0.0 0.0 0.0
75.5 -0.426319324975 -0.0715046244008 0.261527866865 -0.84608404506 0.0 0.0 0.0 0.0
75.515625 -0.426057167667 -0.0710122540934 0.260249273948 -0.846334897542 0.0 0.0 0.0 0.0
75.53125 -0.425784432618 -0.0705153269444 0.258971576478 -0.846583286333 0.0 0.0 0.0 0.0
75.546875 -0.425501198618 -0.0700140513402 0.257694666856 -0.846829656947 0.0 0.0 0.0 0.0
75.5625 -0.425207683179 -0.0695085270494 0.256418794823 -0.847073608965 0.0 0.0 0.0 0.0
75.578125 -0.424903865837 -0.0689986984645 0.255143594114 -0.8473155513 0.0 0.0 0.0 0.0
75.59375 -0.424589604157 -0.0684848247843 0.253869220164 -0.847555175807 0.0 0.0 0.0 0.0
75.609375 -0.424264698213 -0.0679670908193 0.252595739548 -0.84779269648 0.0 0.0 0.0 0.0
75.625 -0.423928696264 -0.0674451788008 0.251323096839 -0.848027920195 0.0 0.0 0.0 0.0
75.640625 -0.423581589007 -0.0669180930651 0.250051214353 -0.848261407075 0.0 0.0 0.0 0.0
75.65625 -0.423223965501 -0.0663855579884 0.248779748618 -0.848492402335 0.0 0.0 0.0 0.0
75.671875 -0.422856654538 -0.0658478759367 0.247509296107 -0.848721254528 0.0 0.0 0.0 0.0
75.6875 -0.422479583041 -0.0653051773065 0.246239326887 -0.848947820402 0.0 0.0 0.0 0.0
75.703125 -0.422093006348 -0.0647574707324 0.244970072573 -0.849172466565 0.0 0.0 0.0 0.0
75.71875 -0.421697015636 -0.0642049048129 0.243701442044 -0.849394870407 0.0 0.0 0.0 0.0
75.734375 -0.421291753226 -0.0636476068565 0.242433692168 -0.849615064194 0.0 0.0 0.0 0.0
75.75 -0.420877336539 -0.0630855567368 0.241166274099 -0.849833259781 0.0 0.0 0.0 0.0
75.765625 -0.420453745447 -0.0625188645101 0.239899727232 -0.850049194591 0.0 0.0 0.0 0.0
75.78125 -0.420021344155 -0.0619475971715 0.238633778099 -0.850263190264 0.0 0.0 0.0 0.0
75.796875 -0.419579985377 -0.0613716103056 0.237368331665 -0.85047489988 0.0 0.0 0.0 0.0
75.8125 -0.41913007665 -0.0607913122786 0.23610363184 -0.850684750322 0.0 0.0 0.0 0.0
75.828125 -0.418671496287 -0.0602065484532 0.234839448362 -0.850892344608 0.0 0.0 0.0 0.0
75.84375 -0.418204435254 -0.0596172748297 0.233575823832 -0.851097825924 0.0 0.0 0.0 0.0
75.859375 -0.417729038398 -0.0590237673527 0.232312787248 -0.851301290861 0.0 0.0 0.0 0.0
75.875 -0.41724554829 -0.0584259423981 0.231050335336 -0.85150271924 0.0 0.0 0.0 0.0
75.890625 -0.416753877808 -0.0578238970695 0.229788370464 -0.851702191591 0.0 0.0 0.0 0.0
75.90625 -0.416254354257 -0.0572176024194 0.22852697757 -0.851899563276 0.0 0.0 0.0 0.0
75.921875 -0.415746967871 -0.0566072721027 0.227266027929 -0.852094797526 0.0 0.0 0.0 0.0
75.9375 -0.415232042914 -0.0559928898057 0.226005725563 -0.852288194352 0.0 0.0 0.0 0.0
75.953125 -0.414709561801 -0.0553743824342 0.224745986395 -0.852479429479 0.0 0.0 0.0 0.0
75.96875 -0.414179675015 -0.0547519809636 0.22348664843 -0.852668799569 0.0 0.0 0.0 0.0
75.984375 -0.413642707616 -0.0541256436408 0.222227782021 -0.852856101707 0.0 0.0 0.0 0.0
76.0 -0.413098638457 -0.0534954931308 0.22096955873 -0.853041519846 0.0 0.0 0.0 0.0
76.015625 -0.412547633539 -0.0528614562037 0.219711532653 -0.853225197715 0.0 0.0 0.0 0.0
76.03125 -0.411989816724 -0.0522237821979 0.218454279793 -0.853406540419 0.0 0.0 0.0 0.0
76.046875 -0.411425265575 -0.0515823618042 0.217197247785 -0.853586217556 0.0 0.0 0.0 0.0
76.0625 -0.410854332593 -0.0509374472218 0.215940833888 -0.8537638811 0.0 0.0 0.0 0.0
76.078125 -0.410277021369 -0.0502889574792 0.214684767847 -0.853939889572 0.0 0.0 0.0 0.0
76.09375 -0.409693400676 -0.0496370248223 0.213429155799 -0.854113695663 0.0 0.0 0.0 0.0
76.109375 -0.40910367887 -0.0489817596118 0.21217403941 -0.854285939875 0.0 0.0 0.0 0.0
76.125 -0.408507909866 -0.0483232252022 0.210919091045 -0.854456270378 0.0 0.0 0.0 0.0
76.140625 -0.407906213608 -0.0476615028949 0.209664581496 -0.854624796734 0.0 0.0 0.0 0.0
76.15625 -0.407298356295 -0.0469965948295 0.208410251104 -0.854791435968 0.0 0.0 0.0 0.0
76.171875 -0.406684655047 -0.0463284476863 0.207156498214 -0.854956329479 0.0 0.0 0.0 0.0
76.1875 -0.406065296274 -0.0456567430646 0.205903063186 -0.855119394117 0.0 0.0 0.0 0.0
76.203125 -0.405440592471 -0.0449814211294 0.204649854281 -0.855280741067 0.0 0.0 0.0 0.0
76.21875 -0.404811006662 -0.0443026664378 0.203396965129 -0.855440250638 0.0 0.0 0.0 0.0
76.234375 -0.404176884022 -0.0436206918895 0.202144317625 -0.855598092419 0.0 0.0 0.0 0.0
76.25 -0.40353820724 -0.0429355229149 0.200892013773 -0.855754182283 0.0 0.0 0.0 0.0
76.265625 -0.402895414845 -0.042247317933 0.199639933541 -0.855908513384 0.0 0.0 0.0 0.0
76.28125 -0.402248610142 -0.041556214612 0.198387946126 -0.856061031193 0.0 0.0 0.0 0.0
76.296875 -0.401598109782 -0.0408622226181 0.197136227606 -0.856211968738 0.0 0.0 0.0 0.0
76.3125 -0.400944079672 -0.0401652778866 0.195884744501 -0.85636117462 0.0 0.0 0.0 0.0
76.328125 -0.400286467784 -0.0394654832685 0.194633469562 -0.856508520847 0.0 0.0 0.0 0.0
76.34375 -0.399625508442 -0.0387629659661 0.193382262273 -0.856654436398 0.0 0.0 0.0 0.0
76.359375 -0.398961366647 -0.0380578714939 0.192131474451 -0.856798349017 0.0 0.0 0.0 0.0
76.375 -0.398294290044 -0.0373503982578 0.19088070789 -0.856940609563 0.0 0.0 0.0 0.0
76.390625 -0.397624414094 -0.0366405181353 0.189630117665 -0.857081369562 0.0 0.0 0.0 0.0
76.40625 -0.396951899721 -0.035928391622 0.188379764814 -0.857220357793 0.0 0.0 0.0 0.0
76.421875 -0.396277038327 -0.0352141856111 0.187129547766 -0.857357647538 0.0 0.0 0.0 0.0
76.4375 -0.3956001941 -0.0344979677731 0.185879519604 -0.857493475002 0.0 0.0 0.0 0.0
76.453125 -0.394921233486 -0.033779721049 0.184629630675 -0.857627605711 0.0 0.0 0.0 0.0
76.46875 -0.394240570362 -0.0330596671197 0.183379781399 -0.857760123779 0.0 0.0 0.0 0.0
76.484375 -0.393558453351 -0.0323378946473 0.182130080253 -0.857890969987 0.0 0.0 0.0 0.0
76.5 -0.392874918388 -0.0316144172161 0.180880340403 -0.858020381769 0.0 0.0 0.0 0.0
76.515625 -0.392190380337 -0.0308893832103 0.179630771682 -0.858148216994 0.0 0.0 0.0 0.0
76.53125 -0.391504906595 -0.0301629270362 0.178381164191 -0.858274606513 0.0 0.0 0.0 0.0
76.546875 -0.39081861158 -0.0294351329409 0.17713168683 -0.858399208552 0.0 0.0 0.0 0.0
76.5625 -0.390132030646 -0.0287062095385 0.17588232188 -0.858522506858 0.0 0.0 0.0 0.0
76.578125 -0.389445199986 -0.027976090038 0.174632993042 -0.858644124825 0.0 0.0 0.0 0.0
76.59375 -0.388758221416 -0.0272449824684 0.173383604668 -0.85876416838 0.0 0.0 0.0 0.0
76.609375 -0.388071415348 -0.0265130328871 0.172134084189 -0.858882860709 0.0 0.0 0.0 0.0
76.625 -0.387385018766 -0.0257803300019 0.170884847639 -0.858999898046 0.0 0.0 0.0 0.0
76.640625 -0.386699266065 -0.025046979482 0.169635366763 -0.859115606934 0.0 0.0 0.0 0.0
76.65625 -0.386014261887 -0.0243130989877 0.168385815591 -0.85922965847 0.0 0.0 0.0 0.0
76.671875 -0.385330406527 -0.0235788290326 0.1671363679 -0.859342325092 0.0 0.0 0.0 0.0
76.6875 -0.384647713368 -0.022844362001 0.165886765966 -0.859453498098 0.0 0.0 0.0 0.0
76.703125 -0.383966502083 -0.0221097314787 0.164637022421 -0.859563235873 0.0 0.0 0.0 0.0
76.71875 -0.383286913909 -0.0213750993629 0.163387329176 -0.859671293755 0.0 0.0 0.0 0.0
76.734375 -0.382609215521 -0.0206406431376 0.162137534958 -0.859778116474 0.0 0.0 0.0 0.0
76.75 -0.381933382246 -0.0199064643769 0.160887580359 -0.859883384889 0.0 0.0 0.0 0.0
76.765625 -0.381259814137 -0.0191725802717 0.159637609978 -0.859987230562 0.0 0.0 0.0 0.0
76.78125 -0.380588357983 -0.0184391257743 0.158387369648 -0.86008955396 0.0 0.0 0.0 0.0
76.796875 -0.37991962823 -0.0177059545972 0.157137135253 -0.860190560043 0.0 0.0 0.0 0.0
76.8125 -0.379253682474 -0.0169731135507 0.155886663223 -0.86029020765 0.0 0.0 0.0 0.0
76.828125 -0.378590951843 -0.0162406755355 0.154636034962 -0.860388286202 0.0 0.0 0.0 0.0
76.84375 -0.377931492621 -0.0155086642953 0.153385266871 -0.860484877746 0.0 0.0 0.0 0.0
76.859375 -0.377275813328 -0.0147772022143 0.15213439992 -0.860580206103 0.0 0.0 0.0 0.0
76.875 -0.376624081345 -0.0140465981417 0.150883261849 -0.860673960101 0.0 0.0 0.0 0.0
76.890625 -0.375976476532 -0.0133168380164 0.149631955019 -0.860766717481 0.0 0.0 0.0 0.0
76.90625 -0.375333296745 -0.0125880400286 0.148380297396 -0.860857425782 0.0 0.0 0.0 0.0
76.921875 -0.374694833858 -0.0118604733621 0.147128689663 -0.860947025282 0.0 0.0 0.0 0.0
76.9375 -0.37406142903 -0.011134132421 0.145876729394 -0.861035231588 0.0 0.0 0.0 0.0
76.953125 -0.373433168284 -0.0104092497708 0.144624621105 -0.861121850972 0.0 0.0 0.0 0.0
76.96875 -0.372810472948 -0.00968581570327 0.143372310877 -0.861207256496 0.0 0.0 0.0 0.0
76.984375 -0.372193673419 -0.00896408538106 0.142119635413 -0.86129117055 0.0 0.0 0.0 0.0
77.0 -0.371582698301 -0.00824402127578 0.140866813918 -0.861373483087 0.0 0.0 0.0 0.0
77.015625 -0.370978124396 -0.00752579947485 0.139613800536 -0.861454625882 0.0 0.0 0.0 0.0
77.03125 -0.370379998198 -0.00680955430007 0.138360414037 -0.861534202511 0.0 0.0 0.0 0.0
77.046875 -0.369788733717 -0.00609536608599 0.137106934536 -0.861612482296 0.0 0.0 0.0 0.0
77.0625 -0.369204620076 -0.005383423131 0.135853204862 -0.861689210788 0.0 0.0 0.0 0.0
77.078125 -0.368627745795 -0.00467377518208 0.134599259878 -0.861764599766 0.0 0.0 0.0 0.0
77.09375 -0.368058402068 -0.00396645070203 0.133344961719 -0.861838512168 0.0 0.0 0.0 0.0
77.109375 -0.367496836303 -0.00326174735197 0.132090444616 -0.861911047102 0.0 0.0 0.0 0.0
77.125 -0.366943379516 -0.00255972159008 0.130835704025 -0.861982168014 0.0 0.0 0.0 0.0
77.140625 -0.366398200394 -0.00186052834063 0.129580845071 -0.862051785589 0.0 0.0 0.0 0.0
77.15625 -0.365861589478 -0.00116418274069 0.128325538796 -0.862120045158 0.0 0.0 0.0 0.0
77.171875 -0.365333796012 -0.000470983936281 0.127070247023 -0.862186888802 0.0 0.0 0.0 0.0
77.1875 -0.364815110757 0.000219085937863 0.125814535573 -0.862252549146 0.0 0.0 0.0 0.0
77.203125 -0.364305703746 0.000905980886863 0.124558814255 -0.862316614603 0.0 0.0 0.0 0.0
77.21875 -0.363805826219 0.00158942952457 0.123302741952 -0.862379146162 0.0 0.0 0.0 0.0
77.234375 -0.363315849432 0.00226937254568 0.122046486997 -0.862440492901 0.0 0.0 0.0 0.0
77.25 -0.362835826069 0.00294567297252 0.120790134387 -0.862500424635 0.0 0.0 0.0 0.0
77.265625 -0.362366088343 0.00361827788253 0.119533332298 -0.862558929354 0.0 0.0 0.0 0.0
77.28125 -0.361906849557 0.00428709513772 0.118276565675 -0.862616119559 0.0 0.0 0.0 0.0
77.296875 -0.361458286427 0.00495186590665 0.117019231707 -0.862671859997 0.0 0.0 0.0 0.0
77.3125 -0.361020811969 0.00561258194583 0.115761952144 -0.862726414371 0.0 0.0 0.0 0.0
77.328125 -0.360594444606 0.00626911957655 0.114504346077 -0.862779556054 0.0 0.0 0.0 0.0
77.34375 -0.360179402352 0.00692137397739 0.113246534079 -0.862831303906 0.0 0.0 0.0 0.0
77.359375 -0.359775984064 0.00756921042735 0.111988530872 -0.862881763438 0.0 0.0 0.0 0.0
77.375 -0.359384408059 0.00821261330341 0.110730211341 -0.862930865437 0.0 0.0 0.0 0.0
77.390625 -0.359004975043 0.00885145251056 0.109471697179 -0.862978641123 0.0 0.0 0.0 0.0
77.40625 -0.358637786653 0.00948572405459 0.10821298006 -0.863025018368 0.0 0.0 0.0 0.0
77.421875 -0.35828326763 0.0101151773666 0.1069540741 -0.863070102697 0.0 0.0 0.0 0.0
77.4375 -0.357941563602 0.010739750622 0.105694856099 -0.863113836051 0.0 0.0 0.0 0.0
77.453125 -0.357612977551 0.0113594277515 0.104435453196 -0.863156297714 0.0 0.0 0.0 0.0
77.46875 -0.357297780145 0.0119740099635 0.103175875642 -0.863197569553 0.0 0.0 0.0 0.0
77.484375 -0.356996038257 0.0125835792729 0.101915963711 -0.863237284969 0.0 0.0 0.0 0.0
77.5 -0.356708346418 0.0131877631279 0.10065587266 -0.863275760694 0.0 0.0 0.0 0.0
77.515625 -0.356434731367 0.0137867556664 0.0993953727699 -0.863313022136 0.0 0.0 0.0 0.0
77.53125 -0.3561753507 0.014380432783 0.0981347808076 -0.863348779192 0.0 0.0 0.0 0.0
77.546875 -0.355930208203 0.0149686611905 0.0968737691313 -0.863383212163 0.0 0.0 0.0 0.0
77.5625 -0.355699703773 0.0155512617573 0.0956125893208 -0.863416483097 0.0 0.0 0.0 0.0
77.578125 -0.35548407829 0.0161281640303 0.0943510848065 -0.863448224286 0.0 0.0 0.0 0.0
77.59375 -0.355283424666 0.0166991620416 0.0930895151454 -0.863478670048 0.0 0.0 0.0 0.0
77.609375 -0.355097948763 0.0172642043769 0.0918276419309 -0.863507761309 0.0 0.0 0.0 0.0
77.625 -0.354928057666 0.0178231637013 0.090565687156 -0.863535389398 0.0 0.0 0.0 0.0
77.640625 -0.354773802036 0.0183760537255 0.08930334373 -0.863561944958 0.0 0.0 0.0 0.0
77.65625 -0.354635436987 0.0189227526137 0.0880409066173 -0.863586904803 0.0 0.0 0.0 0.0
77.671875 -0.354513219829 0.0194631474311 0.0867782898986 -0.863610552493 0.0 0.0 0.0 0.0
77.6875 -0.354407485314 0.019997184118 0.0855153931457 -0.863633040566 0.0 0.0 0.0 0.0
77.703125 -0.354318223787 0.0205247310386 0.084252421935 -0.863654096086 0.0 0.0 0.0 0.0
77.71875 -0.354245698623 0.0210457106158 0.0829892565331 -0.863673670244 0.0 0.0 0.0 0.0
77.734375 -0.354190134395 0.0215600852124 0.0817256905793 -0.863692020777 0.0 0.0 0.0 0.0
77.75 -0.354151799872 0.0220677746184 0.080462056022 -0.8637089712 0.0 0.0 0.0 0.0
77.765625 -0.354130779331 0.0225685750777 0.0791983547682 -0.863724532774 0.0 0.0 0.0 0.0
77.78125 -0.354127342676 0.0230624837581 0.0779344725691 -0.863738715284 0.0 0.0 0.0 0.0
77.796875 -0.354141730651 0.0235493868038 0.0766703099088 -0.863751693804 0.0 0.0 0.0 0.0
77.8125 -0.354174030895 0.0240291704059 0.0754060927148 -0.863763399236 0.0 0.0 0.0 0.0
77.828125 -0.354224364961 0.0245018392267 0.0741417968203 -0.863773546473 0.0 0.0 0.0 0.0
77.84375 -0.354292979915 0.0249673157607 0.0728773427185 -0.863782547683 0.0 0.0 0.0 0.0
77.859375 -0.35438005519 0.0254254181366 0.0716127104882 -0.86379016467 0.0 0.0 0.0 0.0
77.875 -0.354485725079 0.0258760952694 0.0703480178577 -0.863796410669 0.0 0.0 0.0 0.0
77.890625 -0.354610207798 0.0263192583051 0.069083170398 -0.863801543242 0.0 0.0 0.0 0.0
77.90625 -0.354753440904 0.026754946412 0.0678181248779 -0.863805015939 0.0 0.0 0.0 0.0
77.921875 -0.35491589313 0.0271829419995 0.0665531663058 -0.863807497534 0.0 0.0 0.0 0.0
77.9375 -0.355097558211 0.0276031405173 0.0652879288667 -0.863808753193 0.0 0.0 0.0 0.0
77.953125 -0.355298494793 0.0280156442106 0.0640225092456 -0.863808523813 0.0 0.0 0.0 0.0
77.96875 -0.355518872534 0.028420174342 0.0627568056909 -0.86380698261 0.0 0.0 0.0 0.0
77.984375 -0.355758994393 0.0288167961539 0.0614911629096 -0.863804091544 0.0 0.0 0.0 0.0
78.0 -0.356018826573 0.0292053990647 0.060225239682 -0.863799921988 0.0 0.0 0.0 0.0
78.015625 -0.356298565429 0.0295859771487 0.0589591392264 -0.863794286642 0.0 0.0 0.0 0.0
78.03125 -0.356598294511 0.0299584942406 0.0576929863922 -0.86378730711 0.0 0.0 0.0 0.0
78.046875 -0.356918222364 0.0303228675276 0.0564266636078 -0.863778942873 0.0 0.0 0.0 0.0
78.0625 -0.357258439335 0.0306790487175 0.055160520472 -0.863769230048 0.0 0.0 0.0 0.0
78.078125 -0.357618988885 0.0310271048217 0.053894088533 -0.863758055478 0.0 0.0 0.0 0.0
78.09375 -0.358000167278 0.0313669536738 0.0526276011183 -0.863745439087 0.0 0.0 0.0 0.0
78.109375 -0.358401910892 0.0316985893029 0.0513611826731 -0.863731515671 0.0 0.0 0.0 0.0
78.125 -0.358824555095 0.0320220043234 0.050094597327 -0.863716191767 0.0 0.0 0.0 0.0
78.140625 -0.35926820938 0.0323370928134 0.0488279729749 -0.863699673117 0.0 0.0 0.0 0.0
78.15625 -0.359732653688 0.0326439020237 0.0475615179679 -0.863681555253 0.0 0.0 0.0 0.0
78.171875 -0.360218404114 0.0329422855897 0.0462949098535 -0.863662248229 0.0 0.0 0.0 0.0
78.1875 -0.360725327116 0.0332322699854 0.0450283606037 -0.863641395173 0.0 0.0 0.0 0.0
78.203125 -0.361253571551 0.0335138675933 0.0437617698203 -0.863619262565 0.0 0.0 0.0 0.0
78.21875 -0.361803215843 0.0337870170579 0.0424951266759 -0.863595624573 0.0 0.0 0.0 0.0
78.234375 -0.362374381047 0.0340516570216 0.041228675413 -0.863570742199 0.0 0.0 0.0 0.0
78.25 -0.362967141759 0.0343078213938 0.039962179502 -0.863544484232 0.0 0.0 0.0 0.0
78.265625 -0.363581542987 0.0345554554531 0.0386956443938 -0.863516956706 0.0 0.0 0.0 0.0
78.28125 -0.364217504476 0.0347945710574 0.0374292910123 -0.863487935692 0.0 0.0 0.0 0.0
78.296875 -0.364875191265 0.0350251631605 0.0361627805129 -0.86345755453 0.0 0.0 0.0 0.0
78.3125 -0.36555477778 0.0352471596531 0.0348965786903 -0.863425923842 0.0 0.0 0.0 0.0
78.328125 -0.366256029123 0.0354605555297 0.0336302150764 -0.863392789866 0.0 0.0 0.0 0.0
78.34375 -0.366979212072 0.0356652026775 0.0323641596745 -0.863358371217 0.0 0.0 0.0 0.0
78.359375 -0.3677242044 0.0358612193955 0.0310979549566 -0.863322744569 0.0 0.0 0.0 0.0
78.375 -0.368491187519 0.0360485467764 0.0298320529252 -0.863285667749 0.0 0.0 0.0 0.0
78.390625 -0.369280046722 0.0362272543188 0.0285661119916 -0.863247224141 0.0 0.0 0.0 0.0
78.40625 -0.370090805897 0.0363972575297 0.027300132414 -0.86320740125 0.0 0.0 0.0 0.0
78.421875 -0.370923742829 0.0365584149338 0.026034122386 -0.863166447211 0.0 0.0 0.0 0.0
78.4375 -0.371778609105 0.036710943975 0.0247681865746 -0.86312401451 0.0 0.0 0.0 0.0
78.453125 -0.372655521068 0.0368547055691 0.0235024435799 -0.863080194655 0.0 0.0 0.0 0.0
78.46875 -0.373554375444 0.0369897101573 0.0222365471644 -0.863034913977 0.0 0.0 0.0 0.0
