!SWISSto12 MCK measurement data
!name=Sample_Concrete_19052022_2_3
!thickness[mm]=18.000
# GHz S RI R 50.0 
!freq ReS11 ImS11 ReS21 ImS21 ReS12 ImS12 ReS22 ImS22
75.0 -0.160346257661 0.0445169989406 0.0671316735043 0.161166846697 0.0 0.0 0.0 0.0
75.015625 -0.159925527532 0.0448670578937 0.0691482600396 0.160207458493 0.0 0.0 0.0 0.0
75.03125 -0.159487977446 0.0452263116033 0.0711514060551 0.159222202294 0.0 0.0 0.0 0.0
75.046875 -0.159033069856 0.045593966407 0.0731407452062 0.15821131899 0.0 0.0 0.0 0.0
75.0625 -0.158558107168 0.045971185573 0.0751159628626 0.157174990725 0.0 0.0 0.0 0.0
75.078125 -0.158065023252 0.0463591959962 0.0770767257126 0.156113413361 0.0 0.0 0.0 0.0
75.09375 -0.157554349196 0.0467578817886 0.0790227395043 0.15502683303 0.0 0.0 0.0 0.0
75.109375 -0.157026313628 0.0471666764839 0.0809536767379 0.153915475302 0.0 0.0 0.0 0.0
75.125 -0.156480938974 0.047585517529 0.0828691774546 0.152779503014 0.0 0.0 0.0 0.0
75.140625 -0.155918289806 0.0480141934043 0.0847689886703 0.151619156987 0.0 0.0 0.0 0.0
75.15625 -0.155338367832 0.0484524490242 0.086652752404 0.150434697663 0.0 0.0 0.0 0.0
75.171875 -0.15474119892 0.0489001878097 0.0885202050282 0.149226383181 0.0 0.0 0.0 0.0
75.1875 -0.15412668254 0.0493572304498 0.0903709885795 0.147994332992 0.0 0.0 0.0 0.0
75.203125 -0.153494982857 0.0498234958516 0.0922048456167 0.146738923543 0.0 0.0 0.0 0.0
75.21875 -0.152846026035 0.0502987059845 0.094021484769 0.145460357331 0.0 0.0 0.0 0.0
75.234375 -0.152179818936 0.0507827862353 0.0958205664915 0.144158827889 0.0 0.0 0.0 0.0
75.25 -0.151496348975 0.0512755957437 0.0976018679004 0.142834663041 0.0 0.0 0.0 0.0
75.265625 -0.150795611813 0.0517769592774 0.0993650754961 0.141488050701 0.0 0.0 0.0 0.0
75.28125 -0.150077654292 0.0522867050037 0.10110984615 0.140119299308 0.0 0.0 0.0 0.0
75.296875 -0.149342513624 0.0528046778961 0.102835986073 0.138728665163 0.0 0.0 0.0 0.0
75.3125 -0.148590173673 0.0533307571056 0.104543206479 0.137316407165 0.0 0.0 0.0 0.0
75.328125 -0.147820647493 0.0538647280179 0.106231192593 0.135882787527 0.0 0.0 0.0 0.0
75.34375 -0.14703399289 0.054406395323 0.107899722773 0.134428075209 0.0 0.0 0.0 0.0
75.359375 -0.146230186807 0.0549556703439 0.109548522893 0.132952561958 0.0 0.0 0.0 0.0
75.375 -0.14540935318 0.0555123494376 0.111177341378 0.131456528414 0.0 0.0 0.0 0.0
75.390625 -0.144571406248 0.0560761918392 0.112785876492 0.129940230176 0.0 0.0 0.0 0.0
75.40625 -0.143716430214 0.0566470735504 0.114373930529 0.128403990127 0.0 0.0 0.0 0.0
75.421875 -0.142844583354 0.0572248488907 0.1159412483 0.126848112685 0.0 0.0 0.0 0.0
75.4375 -0.1419557427 0.0578093299619 0.117487553235 0.125272827123 0.0 0.0 0.0 0.0
75.453125 -0.141049996763 0.0584002442141 0.119012671199 0.123678505613 0.0 0.0 0.0 0.0
75.46875 -0.140127371814 0.0589974571503 0.120516296731 0.122065313278 0.0 0.0 0.0 0.0
75.484375 -0.139187985183 0.059600771346 0.121998277825 0.120433719967 0.0 0.0 0.0 0.0
75.5 -0.138231844704 0.0602098925 0.123458305972 0.118783935688 0.0 0.0 0.0 0.0
75.515625 -0.137259016164 0.0608246312378 0.124896227302 0.117116260142 0.0 0.0 0.0 0.0
75.53125 -0.136269513897 0.0614447352897 0.126311818105 0.11543101727 0.0 0.0 0.0 0.0
75.546875 -0.135263458342 0.0620699437559 0.127704802892 0.113728513354 0.0 0.0 0.0 0.0
75.5625 -0.13424088875 0.0627000023041 0.12907504126 0.112009053109 0.0 0.0 0.0 0.0
75.578125 -0.133201840421 0.0633345006668 0.130422280753 0.110272961221 0.0 0.0 0.0 0.0
75.59375 -0.132146276773 0.0639731011911 0.131746389868 0.108520574106 0.0 0.0 0.0 0.0
75.609375 -0.131073994537 0.0646152170333 0.133047068007 0.106752145133 0.0 0.0 0.0 0.0
75.625 -0.129984118086 0.065260688698 0.134324229649 0.104968087912 0.0 0.0 0.0 0.0
75.640625 -0.128876287963 0.065910637243 0.135577641439 0.103168678872 0.0 0.0 0.0 0.0
75.65625 -0.127751340695 0.06656534374 0.136807089022 0.1013542396 0.0 0.0 0.0 0.0
75.671875 -0.126609914581 0.0672245903491 0.138012412822 0.0995250896926 0.0 0.0 0.0 0.0
75.6875 -0.125452246395 0.0678880841397 0.139193468555 0.0976815990778 0.0 0.0 0.0 0.0
75.703125 -0.124278518346 0.0685554830194 0.140350076151 0.0958240678842 0.0 0.0 0.0 0.0
75.71875 -0.123088952425 0.0692265490369 0.141482092845 0.0939528486016 0.0 0.0 0.0 0.0
75.734375 -0.121883670949 0.0699010709693 0.142589297169 0.0920682533184 0.0 0.0 0.0 0.0
75.75 -0.120662753841 0.0705787634275 0.143671611907 0.0901706206049 0.0 0.0 0.0 0.0
75.765625 -0.119426397323 0.0712593650264 0.144728825078 0.0882603008392 0.0 0.0 0.0 0.0
75.78125 -0.118174769273 0.0719426979138 0.145760849366 0.0863376672027 0.0 0.0 0.0 0.0
75.796875 -0.116907969809 0.0726285507372 0.146767484072 0.0844029639727 0.0 0.0 0.0 0.0
75.8125 -0.115626149139 0.0733166635634 0.147748606183 0.0824566061794 0.0 0.0 0.0 0.0
75.828125 -0.114329497991 0.0740067469847 0.148704127727 0.0804989212938 0.0 0.0 0.0 0.0
75.84375 -0.113018073415 0.0746986945814 0.14963388657 0.078530264899 0.0 0.0 0.0 0.0
75.859375 -0.111692113775 0.075392149913 0.150537749027 0.0765509505532 0.0 0.0 0.0 0.0
75.875 -0.110351728613 0.0760869816234 0.151415607192 0.0745613737482 0.0 0.0 0.0 0.0
75.890625 -0.108997136025 0.0767829233086 0.152267389629 0.0725618262248 0.0 0.0 0.0 0.0
75.90625 -0.107628453397 0.0774797784562 0.153092939087 0.0705527006131 0.0 0.0 0.0 0.0
75.921875 -0.10624589887 0.0781772362301 0.153892125185 0.0685343034703 0.0 0.0 0.0 0.0
75.9375 -0.104849612172 0.0788751699954 0.154664938355 0.0665070434692 0.0 0.0 0.0 0.0
75.953125 -0.103439760839 0.0795732454576 0.155411195304 0.0644712320463 0.0 0.0 0.0 0.0
75.96875 -0.102016597562 0.0802713289482 0.156130878407 0.0624272271239 0.0 0.0 0.0 0.0
75.984375 -0.100580289365 0.0809691401611 0.156823834305 0.0603753895157 0.0 0.0 0.0 0.0
76.0 -0.0991310635267 0.0816663978068 0.157490022915 0.0583160586196 0.0 0.0 0.0 0.0
76.015625 -0.097669042182 0.0823629308065 0.158129325554 0.0562495846503 0.0 0.0 0.0 0.0
76.03125 -0.0961944466519 0.0830585146586 0.158741731067 0.0541763616436 0.0 0.0 0.0 0.0
76.046875 -0.0947075557459 0.0837528428365 0.159327159618 0.0520967152845 0.0 0.0 0.0 0.0
76.0625 -0.0932085140809 0.084445707411 0.159885508859 0.0500109936924 0.0 0.0 0.0 0.0
76.078125 -0.0916975229918 0.0851368621825 0.16041677545 0.0479195524971 0.0 0.0 0.0 0.0
76.09375 -0.0901748014439 0.0858259905434 0.160920837115 0.0458227763737 0.0 0.0 0.0 0.0
76.109375 -0.0886405308655 0.0865128479273 0.161397710591 0.0437209859285 0.0 0.0 0.0 0.0
76.125 -0.0870949347025 0.0871972141483 0.161847284484 0.0416145657237 0.0 0.0 0.0 0.0
76.140625 -0.0855380457349 0.0878787072258 0.162269597622 0.0395038559913 0.0 0.0 0.0 0.0
76.15625 -0.083969919787 0.0885570683427 0.162664514964 0.0373892293659 0.0 0.0 0.0 0.0
76.171875 -0.082390478424 0.0892322619833 0.163032135091 0.0352710505101 0.0 0.0 0.0 0.0
76.1875 -0.0807998242164 0.0899045253921 0.163372344969 0.0331496393142 0.0 0.0 0.0 0.0
76.203125 -0.0791985158631 0.0905739384711 0.163685119945 0.0310253618724 0.0 0.0 0.0 0.0
76.21875 -0.0775870987564 0.0912403413571 0.163970510666 0.0288986080148 0.0 0.0 0.0 0.0
76.234375 -0.0759659437214 0.091903388093 0.164228416624 0.0267697074273 0.0 0.0 0.0 0.0
76.25 -0.0743354012807 0.0925629001288 0.16445892234 0.0246390158964 0.0 0.0 0.0 0.0
76.265625 -0.0726958119803 0.0932185179608 0.164661933501 0.0225068774072 0.0 0.0 0.0 0.0
76.28125 -0.0710475421942 0.0938701764418 0.164837537936 0.0203736888719 0.0 0.0 0.0 0.0
76.296875 -0.0693909187782 0.0945175922566 0.164985692077 0.0182397631742 0.0 0.0 0.0 0.0
76.3125 -0.067726083027 0.0951606678581 0.165106384586 0.016105487791 0.0 0.0 0.0 0.0
76.328125 -0.0660534216456 0.0957990486184 0.165199686917 0.0139712115938 0.0 0.0 0.0 0.0
76.34375 -0.0643731790182 0.0964326005118 0.165265621164 0.0118372638646 0.0 0.0 0.0 0.0
76.359375 -0.0626856583987 0.0970610176736 0.165304155259 0.00970402309772 0.0 0.0 0.0 0.0
76.375 -0.0609912587748 0.0976841151456 0.165315374078 0.00757183305872 0.0 0.0 0.0 0.0
76.390625 -0.0592902049956 0.0983017280398 0.16529933039 0.00544102631468 0.0 0.0 0.0 0.0
76.40625 -0.0575828718765 0.0989136292093 0.165255989194 0.00331196327511 0.0 0.0 0.0 0.0
76.421875 -0.0558696116717 0.0995195850668 0.165185429636 0.00118500559996 0.0 0.0 0.0 0.0
76.4375 -0.0541507346266 0.10011942444 0.165087735713 -0.000939517226881 0.0 0.0 0.0 0.0
76.453125 -0.0524264986205 0.100713068113 0.164962886422 -0.00306126388264 0.0 0.0 0.0 0.0
76.46875 -0.0506973780548 0.101300109829 0.164810992782 -0.00517986386914 0.0 0.0 0.0 0.0
76.484375 -0.0489636201524 0.101880477354 0.164632079219 -0.0072949857061 0.0 0.0 0.0 0.0
76.5 -0.047225533327 0.102454022839 0.164426228704 -0.00940629083221 0.0 0.0 0.0 0.0
76.515625 -0.0454835161516 0.103020466051 0.164193528661 -0.0115134372353 0.0 0.0 0.0 0.0
76.53125 -0.0437379081926 0.103579712951 0.163934054084 -0.0136160681532 0.0 0.0 0.0 0.0
76.546875 -0.0419890782232 0.104131596583 0.16364780758 -0.0157138804995 0.0 0.0 0.0 0.0
76.5625 -0.0402374114453 0.104675783153 0.163334965439 -0.0178064977114 0.0 0.0 0.0 0.0
76.578125 -0.0384831782478 0.105212195138 0.162995577839 -0.0198935898323 0.0 0.0 0.0 0.0
76.59375 -0.0367267582695 0.105740603737 0.162629696994 -0.021974841273 0.0 0.0 0.0 0.0
76.609375 -0.0349685247532 0.106260862206 0.162237456096 -0.0240499031864 0.0 0.0 0.0 0.0
76.625 -0.0332088614026 0.106772769326 0.161818936402 -0.0261184431648 0.0 0.0 0.0 0.0
76.640625 -0.0314480758259 0.107276225146 0.161374276321 -0.0281801400358 0.0 0.0 0.0 0.0
76.65625 -0.0296865313849 0.107770880236 0.160903566338 -0.0302346579926 0.0 0.0 0.0 0.0
76.671875 -0.0279246815043 0.10825671963 0.160406880638 -0.0322816744932 0.0 0.0 0.0 0.0
76.6875 -0.0261627685003 0.108733427634 0.159884373291 -0.0343208552084 0.0 0.0 0.0 0.0
76.703125 -0.0244011630671 0.109200878515 0.159336162325 -0.0363518854332 0.0 0.0 0.0 0.0
76.71875 -0.0226402669285 0.109658811061 0.158762314496 -0.0383744500632 0.0 0.0 0.0 0.0
76.734375 -0.020880327583 0.110107142221 0.158163055442 -0.0403882051843 0.0 0.0 0.0 0.0
76.75 -0.019121692753 0.110545481839 0.157538398608 -0.04239286231 0.0 0.0 0.0 0.0
76.765625 -0.0173645265107 0.110973860163 0.156888595762 -0.044388085368 0.0 0.0 0.0 0.0
76.78125 -0.0156091822218 0.111392156976 0.15621373188 -0.046373557673 0.0 0.0 0.0 0.0
76.796875 -0.0138559527937 0.111800421406 0.155513888914 -0.048348985073 0.0 0.0 0.0 0.0
76.8125 -0.0121053087693 0.11219866492 0.154789327477 -0.0503140524356 0.0 0.0 0.0 0.0
76.828125 -0.0103576935787 0.112586718488 0.154040128853 -0.0522684362279 0.0 0.0 0.0 0.0
76.84375 -0.00861351519142 0.112964503163 0.153266409207 -0.0542118336654 0.0 0.0 0.0 0.0
76.859375 -0.00687301049902 0.113331883596 0.152468427929 -0.0561439762603 0.0 0.0 0.0 0.0
76.875 -0.00513696678024 0.113688419349 0.15164628026 -0.0580644872948 0.0 0.0 0.0 0.0
76.890625 -0.00340569560994 0.114034159663 0.150800172335 -0.0599731638715 0.0 0.0 0.0 0.0
76.90625 -0.00167962220075 0.114368996828 0.149930206053 -0.0618696362585 0.0 0.0 0.0 0.0
76.921875 4.07005557251e-05 0.114692670981 0.149036584212 -0.0637536324941 0.0 0.0 0.0 0.0
76.9375 0.00175501287983 0.115005147334 0.148119530395 -0.0656248867579 0.0 0.0 0.0 0.0
76.953125 0.00346267681161 0.115306082963 0.147179145485 -0.0674830689611 0.0 0.0 0.0 0.0
76.96875 0.00516337704117 0.11559562948 0.14621574493 -0.0693279465459 0.0 0.0 0.0 0.0
76.984375 0.00685665676965 0.115873473107 0.145229308997 -0.0711591736877 0.0 0.0 0.0 0.0
77.0 0.00854210066864 0.116139486766 0.144220186881 -0.0729765073915 0.0 0.0 0.0 0.0
77.015625 0.0102192141381 0.116393610254 0.143188507657 -0.0747796787407 0.0 0.0 0.0 0.0
77.03125 0.0118876003553 0.116635707624 0.142134511784 -0.0765683666127 0.0 0.0 0.0 0.0
77.046875 0.0135467418794 0.11686560782 0.141058349039 -0.0783423551349 0.0 0.0 0.0 0.0
77.0625 0.0151962752071 0.117083178714 0.139960264442 -0.080101334178 0.0 0.0 0.0 0.0
77.078125 0.0168356502185 0.117288233289 0.138840428616 -0.0818450638641 0.0 0.0 0.0 0.0
77.09375 0.0184645806528 0.117480996315 0.137699044684 -0.0835732547686 0.0 0.0 0.0 0.0
77.109375 0.0200824019557 0.11766087775 0.136536382997 -0.0852856529538 0.0 0.0 0.0 0.0
77.125 0.0216887100425 0.117827985117 0.135352604115 -0.0869819890188 0.0 0.0 0.0 0.0
77.140625 0.0232831764153 0.117982167124 0.134147907729 -0.088662036258 0.0 0.0 0.0 0.0
77.15625 0.0248652476889 0.118123361232 0.132922566819 -0.0903254956688 0.0 0.0 0.0 0.0
77.171875 0.0264344383575 0.118251352477 0.131676833354 -0.0919721730697 0.0 0.0 0.0 0.0
77.1875 0.0279903753257 0.118366054542 0.130410857256 -0.093601778921 0.0 0.0 0.0 0.0
77.203125 0.0295325753791 0.118467506855 0.129124907205 -0.0952141064927 0.0 0.0 0.0 0.0
77.21875 0.0310604327998 0.118555359037 0.127819221213 -0.0968088497468 0.0 0.0 0.0 0.0
77.234375 0.0325737438693 0.118629755708 0.126494026961 -0.0983858420171 0.0 0.0 0.0 0.0
77.25 0.0340717675547 0.1186903599 0.125149556232 -0.0999448002064 0.0 0.0 0.0 0.0
77.265625 0.0355543075845 0.118737176481 0.123786066644 -0.101485529931 0.0 0.0 0.0 0.0
77.28125 0.0370207740371 0.118770255799 0.122403823987 -0.103007777324 0.0 0.0 0.0 0.0
77.296875 0.0384706891697 0.118789292095 0.121002996135 -0.104511303401 0.0 0.0 0.0 0.0
77.3125 0.03990366493 0.118794221773 0.119583907995 -0.105995933319 0.0 0.0 0.0 0.0
77.328125 0.0413192518094 0.118785046504 0.118146793602 -0.107461416623 0.0 0.0 0.0 0.0
77.34375 0.0427169399775 0.118761632067 0.116691889557 -0.108907532827 0.0 0.0 0.0 0.0
77.359375 0.0440964300149 0.118724021011 0.115219493233 -0.110334104629 0.0 0.0 0.0 0.0
77.375 0.0454572441938 0.11867213042 0.11372981012 -0.111740854315 0.0 0.0 0.0 0.0
77.390625 0.0467988176547 0.118605779918 0.11222315246 -0.113127651594 0.0 0.0 0.0 0.0
77.40625 0.0481208362791 0.118525221946 0.110699756515 -0.11449424923 0.0 0.0 0.0 0.0
77.421875 0.0494226564189 0.118430259344 0.109159927502 -0.1158404857 0.0 0.0 0.0 0.0
77.4375 0.0507039259989 0.118320807482 0.107603892253 -0.117166134776 0.0 0.0 0.0 0.0
77.453125 0.0519641520483 0.118196983877 0.106031924406 -0.118471003604 0.0 0.0 0.0 0.0
77.46875 0.0532027345909 0.118058544979 0.104444357202 -0.119754968693 0.0 0.0 0.0 0.0
77.484375 0.0544194670663 0.117905966144 0.102841387082 -0.12101775352 0.0 0.0 0.0 0.0
77.5 0.0556135562654 0.117738479923 0.101223325743 -0.122259195415 0.0 0.0 0.0 0.0
77.515625 0.0567847637819 0.117556497596 0.0995904503191 -0.123479143268 0.0 0.0 0.0 0.0
77.53125 0.0579325881609 0.117359821525 0.0979430826001 -0.124677436946 0.0 0.0 0.0 0.0
77.546875 0.0590566146398 0.117148555642 0.0962814821427 -0.125853839046 0.0 0.0 0.0 0.0
77.5625 0.0601563364185 0.116922653011 0.0946059502227 -0.127008304593 0.0 0.0 0.0 0.0
77.578125 0.0612312330446 0.116682004452 0.0929167535203 -0.128140535576 0.0 0.0 0.0 0.0
77.59375 0.0622809246865 0.116426618355 0.0912142031162 -0.129250488298 0.0 0.0 0.0 0.0
77.609375 0.0633050013262 0.11615654805 0.0894986054312 -0.130337955404 0.0 0.0 0.0 0.0
77.625 0.0643030019873 0.115871706934 0.087770203086 -0.131402821515 0.0 0.0 0.0 0.0
77.640625 0.0652744278867 0.115572261142 0.0860293621821 -0.132444892125 0.0 0.0 0.0 0.0
77.65625 0.0662189147966 0.115258169663 0.0842763194041 -0.133464064471 0.0 0.0 0.0 0.0
77.671875 0.0671359504471 0.114929407592 0.0825113915111 -0.134460146438 0.0 0.0 0.0 0.0
77.6875 0.0680251923053 0.11458612407 0.0807348804998 -0.135433083049 0.0 0.0 0.0 0.0
77.703125 0.068886021159 0.114228056418 0.0789471063637 -0.136382691138 0.0 0.0 0.0 0.0
77.71875 0.0697181234435 0.113855479072 0.07714834609 -0.137308858636 0.0 0.0 0.0 0.0
77.734375 0.0705210760844 0.113468326552 0.0753389233526 -0.138211450889 0.0 0.0 0.0 0.0
77.75 0.0712944829881 0.113066797545 0.0735191427791 -0.13909038829 0.0 0.0 0.0 0.0
77.765625 0.072037784817 0.112650646334 0.0716892825417 -0.139945452957 0.0 0.0 0.0 0.0
77.78125 0.0727506692293 0.11222010319 0.0698497159937 -0.140776655445 0.0 0.0 0.0 0.0
77.796875 0.0734326749812 0.111775013659 0.0680006689893 -0.141583813676 0.0 0.0 0.0 0.0
77.8125 0.0740834218645 0.111315494787 0.0661425115527 -0.14236687097 0.0 0.0 0.0 0.0
77.828125 0.0747025163468 0.110841684113 0.0642755603152 -0.143125687498 0.0 0.0 0.0 0.0
77.84375 0.0752895584837 0.110353559155 0.0624001240931 -0.143860207587 0.0 0.0 0.0 0.0
77.859375 0.0758441817835 0.10985115801 0.0605164707948 -0.144570283989 0.0 0.0 0.0 0.0
77.875 0.0763658801636 0.109334451432 0.0586249688853 -0.145255843542 0.0 0.0 0.0 0.0
77.890625 0.0768544373842 0.108803617284 0.0567259215371 -0.145916882021 0.0 0.0 0.0 0.0
77.90625 0.0773093852982 0.108258632768 0.0548196345682 -0.146553176083 0.0 0.0 0.0 0.0
77.921875 0.0777304234672 0.107699625815 0.0529064561266 -0.147164785937 0.0 0.0 0.0 0.0
77.9375 0.0781171540681 0.107126561752 0.0509866496834 -0.14775154988 0.0 0.0 0.0 0.0
77.953125 0.0784692675618 0.106539650975 0.0490605865085 -0.148313418396 0.0 0.0 0.0 0.0
77.96875 0.0787863015421 0.105938806254 0.0471286081329 -0.148850393868 0.0 0.0 0.0 0.0
77.984375 0.0790680363521 0.105324182155 0.0451909738288 -0.149362292905 0.0 0.0 0.0 0.0
78.0 0.0793142097708 0.104695843577 0.0432480658305 -0.149849185148 0.0 0.0 0.0 0.0
78.015625 0.0795244475636 0.104053821512 0.0413001567651 -0.150310927028 0.0 0.0 0.0 0.0
78.03125 0.0796984458594 0.103398520836 0.03934760793 -0.15074753187 0.0 0.0 0.0 0.0
78.046875 0.0798358499039 0.102729728179 0.037390741247 -0.151158957508 0.0 0.0 0.0 0.0
78.0625 0.0799363849403 0.102047671118 0.0354298509908 -0.151545137306 0.0 0.0 0.0 0.0
78.078125 0.0799997606921 0.101352405391 0.0334652810314 -0.151906031802 0.0 0.0 0.0 0.0
78.09375 0.0800256366758 0.100644134385 0.031497382567 -0.152241640133 0.0 0.0 0.0 0.0
78.109375 0.0800137742592 0.0999230901934 0.0295264314814 -0.152551911682 0.0 0.0 0.0 0.0
78.125 0.0799638877337 0.0991892923772 0.0275527843774 -0.152836887249 0.0 0.0 0.0 0.0
78.140625 0.0798755570426 0.0984427683273 0.02557676652 -0.153096445168 0.0 0.0 0.0 0.0
78.15625 0.0797485222 0.0976837495011 0.0235986679851 -0.153330612373 0.0 0.0 0.0 0.0
78.171875 0.0795825609491 0.0969123025991 0.0216188837953 -0.153539437345 0.0 0.0 0.0 0.0
78.1875 0.0793774646717 0.0961285663143 0.0196376451707 -0.153722859445 0.0 0.0 0.0 0.0
78.203125 0.0791329215244 0.0953327079649 0.0176553784505 -0.153880864 0.0 0.0 0.0 0.0
78.21875 0.0788486317075 0.0945247984027 0.0156723290331 -0.154013498322 0.0 0.0 0.0 0.0
78.234375 0.07852437266 0.0937050425881 0.0136888571544 -0.154120731075 0.0 0.0 0.0 0.0
78.25 0.0781599536899 0.0928734663572 0.0117052912375 -0.154202641714 0.0 0.0 0.0 0.0
78.265625 0.0777550668114 0.0920302919516 0.00972194517144 -0.154259144521 0.0 0.0 0.0 0.0
78.28125 0.0773097027559 0.0911756225484 0.00773914783819 -0.154290360983 0.0 0.0 0.0 0.0
78.296875 0.0768235603951 0.09030973449 0.00575721609697 -0.1542962473 0.0 0.0 0.0 0.0
78.3125 0.0762964094178 0.0894326083748 0.00377647141761 -0.154276831454 0.0 0.0 0.0 0.0
78.328125 0.0757281543271 0.0885444924702 0.00179723547862 -0.154232213214 0.0 0.0 0.0 0.0
78.34375 0.0751183874683 0.0876452725309 -0.000180153459415 -0.154162360884 0.0 0.0 0.0 0.0
78.359375 0.0744672718428 0.0867354024548 -0.00215543787489 -0.154067348293 0.0 0.0 0.0 0.0
78.375 0.0737745009134 0.0858149170017 -0.00412819673007 -0.153947186817 0.0 0.0 0.0 0.0
78.390625 0.0730399533431 0.0848839522055 -0.00609817356071 -0.153801924463 0.0 0.0 0.0 0.0
78.40625 0.0722634622516 0.0839427436972 -0.00806505114975 -0.153631613299 0.0 0.0 0.0 0.0
78.421875 0.071444877193 0.0829913218238 -0.0100284767029 -0.153436379435 0.0 0.0 0.0 0.0
78.4375 0.0705842110132 0.0820299037074 -0.0119881527096 -0.153216215273 0.0 0.0 0.0 0.0
78.453125 0.0696811885664 0.0810586183553 -0.0139437648561 -0.152971185527 0.0 0.0 0.0 0.0
78.46875 0.0687358174475 0.0800776231527 -0.0158950068579 -0.152701425904 0.0 0.0 0.0 0.0
78.484375 0.0677480308328 0.0790871596557 -0.0178415206873 -0.152406946395 0.0 0.0 0.0 0.0
78.5 0.0667176903125 0.078087318109 -0.0197830765757 -0.152087814438 0.0 0.0 0.0 0.0
