!SWISSto12 MCK measurement data
!name=Sample_Wood_19052022_1
!thickness[mm]=8.300
# GHz S RI R 50.0 
!freq ReS11 ImS11 ReS21 ImS21 ReS12 ImS12 ReS22 ImS22
75.0 -0.214423362112 0.0840772659688 0.51899688182 0.0493273987512 0.0 0.0 0.0 0.0
75.015625 -0.21395269665 0.0843925343903 0.519129976211 0.0472453678506 0.0 0.0 0.0 0.0
75.03125 -0.21346615387 0.0847207047324 0.519253344254 0.0451640914584 0.0 0.0 0.0 0.0
75.046875 -0.212963202027 0.0850607294291 0.519367214109 0.0430834455417 0.0 0.0 0.0 0.0
75.0625 -0.21244068379 0.0854131254441 0.519471756524 0.0410036332292 0.0 0.0 0.0 0.0
75.078125 -0.211899978096 0.0857798400725 0.519566851222 0.0389245633126 0.0 0.0 0.0 0.0
75.09375 -0.21134180104 0.0861608483506 0.519652363174 0.0368463283008 0.0 0.0 0.0 0.0
75.109375 -0.210766348667 0.0865556601537 0.519728707162 0.0347689596894 0.0 0.0 0.0 0.0
75.125 -0.210173516649 0.0869642487191 0.51979555431 0.0326924595773 0.0 0.0 0.0 0.0
75.140625 -0.209563406672 0.0873863381735 0.519853001148 0.0306169017269 0.0 0.0 0.0 0.0
75.15625 -0.208936011973 0.0878217749825 0.519901120917 0.0285422724874 0.0 0.0 0.0 0.0
75.171875 -0.208291155118 0.0882703521033 0.519939948971 0.0264687244678 0.0 0.0 0.0 0.0
75.1875 -0.207628869037 0.0887319932655 0.519969477581 0.0243961495775 0.0 0.0 0.0 0.0
75.203125 -0.206949010727 0.0892065165002 0.519989832767 0.0223246041186 0.0 0.0 0.0 0.0
75.21875 -0.206251651948 0.0896936702258 0.520000769021 0.0202541474867 0.0 0.0 0.0 0.0
75.234375 -0.205536657272 0.0901933606307 0.520002412718 0.0181848517099 0.0 0.0 0.0 0.0
75.25 -0.204803949614 0.0907054708873 0.519994981546 0.0161166250887 0.0 0.0 0.0 0.0
75.265625 -0.204053528128 0.0912298214785 0.519978142471 0.0140495905938 0.0 0.0 0.0 0.0
75.28125 -0.203285278525 0.091766176041 0.519952252982 0.0119837289567 0.0 0.0 0.0 0.0
75.296875 -0.202499252021 0.0923143986213 0.519917182556 0.00991909914539 0.0 0.0 0.0 0.0
75.3125 -0.201695339676 0.0928743968563 0.519873030371 0.00785571110883 0.0 0.0 0.0 0.0
75.328125 -0.200873495467 0.0934459289689 0.519819609783 0.00579357719218 0.0 0.0 0.0 0.0
75.34375 -0.200033794889 0.094028714481 0.519757161785 0.00373274698054 0.0 0.0 0.0 0.0
75.359375 -0.199176020288 0.0946227443038 0.519685613652 0.00167327897308 0.0 0.0 0.0 0.0
75.375 -0.19830027775 0.0952277076273 0.519604921594 -0.000384910051202 0.0 0.0 0.0 0.0
75.390625 -0.197406523467 0.0958434858109 0.519515212239 -0.00244168124574 0.0 0.0 0.0 0.0
75.40625 -0.196494777945 0.0964698148192 0.519416469471 -0.00449710649768 0.0 0.0 0.0 0.0
75.421875 -0.195564978365 0.0971066441171 0.519308677899 -0.00655107411515 0.0 0.0 0.0 0.0
75.4375 -0.194617076125 0.0977536637524 0.519191879413 -0.00860353648793 0.0 0.0 0.0 0.0
75.453125 -0.193651159959 0.0984107083584 0.519066171811 -0.0106545133441 0.0 0.0 0.0 0.0
75.46875 -0.192667179528 0.0990775055201 0.518931310907 -0.0127039885548 0.0 0.0 0.0 0.0
75.484375 -0.191665093687 0.0997539110333 0.518787738133 -0.0147518875065 0.0 0.0 0.0 0.0
75.5 -0.190644892849 0.100439604684 0.518635121242 -0.0167982821372 0.0 0.0 0.0 0.0
75.515625 -0.189606679041 0.101134401629 0.518473815777 -0.0188430987244 0.0 0.0 0.0 0.0
75.53125 -0.188550407548 0.101837930143 0.518303520904 -0.0208863020191 0.0 0.0 0.0 0.0
75.546875 -0.187476069237 0.102549994082 0.518124276086 -0.0229278982779 0.0 0.0 0.0 0.0
75.5625 -0.186383747706 0.103270313898 0.517936351107 -0.0249678340779 0.0 0.0 0.0 0.0
75.578125 -0.185273505338 0.103998401117 0.517739529944 -0.0270060888102 0.0 0.0 0.0 0.0
75.59375 -0.184145224794 0.104733897314 0.517533995972 -0.0290426326584 0.0 0.0 0.0 0.0
75.609375 -0.182998708794 0.10547611387 0.517319729131 -0.0310775019782 0.0 0.0 0.0 0.0
75.625 -0.181833138735 0.106224613054 0.517096627069 -0.0331106669356 0.0 0.0 0.0 0.0
75.640625 -0.180647662426 0.10698036873 0.51686498612 -0.0351421036191 0.0 0.0 0.0 0.0
75.65625 -0.179442897613 0.107743882702 0.516624310521 -0.0371717032806 0.0 0.0 0.0 0.0
75.671875 -0.178219478157 0.10851500763 0.516375206225 -0.039199506289 0.0 0.0 0.0 0.0
75.6875 -0.176977668809 0.109293482338 0.516117377108 -0.0412254126384 0.0 0.0 0.0 0.0
75.703125 -0.175717622219 0.110078955923 0.515851023802 -0.0432495320571 0.0 0.0 0.0 0.0
75.71875 -0.174439431914 0.110871163539 0.51557596193 -0.045271787927 0.0 0.0 0.0 0.0
75.734375 -0.17314322412 0.111669861381 0.515292465003 -0.0472920950152 0.0 0.0 0.0 0.0
75.75 -0.171829114395 0.112474685795 0.515000362208 -0.0493105502992 0.0 0.0 0.0 0.0
75.765625 -0.170497139355 0.113285467046 0.514699614899 -0.0513270492131 0.0 0.0 0.0 0.0
75.78125 -0.169147528017 0.11410185322 0.514390515678 -0.0533416072853 0.0 0.0 0.0 0.0
75.796875 -0.167780243634 0.114923677233 0.514072787198 -0.055354226491 0.0 0.0 0.0 0.0
75.8125 -0.166395547434 0.115750598582 0.513746811582 -0.0573648783845 0.0 0.0 0.0 0.0
75.828125 -0.164993435515 0.116582377368 0.513412317949 -0.0593735038961 0.0 0.0 0.0 0.0
75.84375 -0.163574019195 0.11741878924 0.513069257433 -0.0613801007149 0.0 0.0 0.0 0.0
75.859375 -0.16213744484 0.118259473905 0.512717946747 -0.0633847108464 0.0 0.0 0.0 0.0
75.875 -0.160683863127 0.119104244556 0.512358314548 -0.0653872754026 0.0 0.0 0.0 0.0
75.890625 -0.159213352727 0.119952850277 0.511990228829 -0.0673877652295 0.0 0.0 0.0 0.0
75.90625 -0.157726074677 0.120804956981 0.511613836892 -0.0693861998377 0.0 0.0 0.0 0.0
75.921875 -0.156222151659 0.121660274239 0.511229103591 -0.0713824670884 0.0 0.0 0.0 0.0
75.9375 -0.154701685837 0.122518668948 0.510836188387 -0.0733767032866 0.0 0.0 0.0 0.0
75.953125 -0.153164889137 0.123379717242 0.510434862857 -0.0753687470142 0.0 0.0 0.0 0.0
75.96875 -0.151611920374 0.124243230867 0.510025384964 -0.0773586412885 0.0 0.0 0.0 0.0
75.984375 -0.150042911507 0.12510887423 0.509607658231 -0.0793463085016 0.0 0.0 0.0 0.0
76.0 -0.148458045878 0.125976346064 0.509181669138 -0.0813318737625 0.0 0.0 0.0 0.0
76.015625 -0.146857472168 0.126845445732 0.508747591386 -0.0833151797207 0.0 0.0 0.0 0.0
76.03125 -0.145241406816 0.127715820976 0.5083053239 -0.0852961819019 0.0 0.0 0.0 0.0
76.046875 -0.143609961042 0.128587141539 0.507854767751 -0.0872749910749 0.0 0.0 0.0 0.0
76.0625 -0.141963357969 0.129459170503 0.507396236083 -0.0892514842973 0.0 0.0 0.0 0.0
76.078125 -0.140301860118 0.130331654331 0.5069295555 -0.0912256996397 0.0 0.0 0.0 0.0
76.09375 -0.138625552192 0.131204067403 0.506454826854 -0.0931975834259 0.0 0.0 0.0 0.0
76.109375 -0.136934614487 0.132076244441 0.505972019656 -0.0951671720468 0.0 0.0 0.0 0.0
76.125 -0.135229305432 0.132947724999 0.50548117417 -0.0971344277536 0.0 0.0 0.0 0.0
76.140625 -0.133509667774 0.13381818587 0.504982356907 -0.0990993271606 0.0 0.0 0.0 0.0
76.15625 -0.131775711558 0.134687044557 0.504475411066 -0.101061811806 0.0 0.0 0.0 0.0
76.171875 -0.130027220399 0.135554203644 0.503960547067 -0.103021860637 0.0 0.0 0.0 0.0
76.1875 -0.12826416603 0.136419820571 0.503437869448 -0.104979547413 0.0 0.0 0.0 0.0
76.203125 -0.126486984362 0.137284043648 0.502907150688 -0.106934737064 0.0 0.0 0.0 0.0
76.21875 -0.124696198 0.138146682247 0.50236851873 -0.108887525121 0.0 0.0 0.0 0.0
76.234375 -0.12289215527 0.139007408416 0.501821991413 -0.110837713429 0.0 0.0 0.0 0.0
76.25 -0.12107523995 0.139865981513 0.501267605515 -0.112785546094 0.0 0.0 0.0 0.0
76.265625 -0.119245771379 0.14072211801 0.500705359257 -0.114730785866 0.0 0.0 0.0 0.0
76.28125 -0.117404104437 0.141575567287 0.500135364592 -0.116673467069 0.0 0.0 0.0 0.0
76.296875 -0.115550456642 0.142425941564 0.499557430574 -0.118613676885 0.0 0.0 0.0 0.0
76.3125 -0.113685145039 0.143273095194 0.498971756326 -0.120551198314 0.0 0.0 0.0 0.0
76.328125 -0.11180845307 0.144116636656 0.498378291994 -0.122486133896 0.0 0.0 0.0 0.0
76.34375 -0.109920719925 0.144956350465 0.497777109204 -0.12441843991 0.0 0.0 0.0 0.0
76.359375 -0.10802218321 0.145791836696 0.497168311292 -0.126348178544 0.0 0.0 0.0 0.0
76.375 -0.106113309962 0.146622866616 0.496551677815 -0.128275197873 0.0 0.0 0.0 0.0
76.390625 -0.104194271478 0.147449271134 0.495927538479 -0.130199583398 0.0 0.0 0.0 0.0
76.40625 -0.102265463378 0.14827066249 0.495295591178 -0.132121275226 0.0 0.0 0.0 0.0
76.421875 -0.100327176122 0.149086845384 0.49465607743 -0.134040249624 0.0 0.0 0.0 0.0
76.4375 -0.0983798401172 0.149897477767 0.494008994414 -0.135956525484 0.0 0.0 0.0 0.0
76.453125 -0.0964236449303 0.150702446415 0.493354336826 -0.13787002358 0.0 0.0 0.0 0.0
76.46875 -0.0944591114858 0.151501211033 0.49269207381 -0.139780860811 0.0 0.0 0.0 0.0
76.484375 -0.0924864351799 0.152293675977 0.492022153923 -0.141688810997 0.0 0.0 0.0 0.0
76.5 -0.0905060071891 0.153079641777 0.491344779263 -0.143594093182 0.0 0.0 0.0 0.0
76.515625 -0.0885182294755 0.153858725196 0.490659985119 -0.145496489995 0.0 0.0 0.0 0.0
76.53125 -0.0865234919275 0.154630782861 0.489967579576 -0.147396160087 0.0 0.0 0.0 0.0
76.546875 -0.0845220196042 0.155395453984 0.489267702222 -0.149292933431 0.0 0.0 0.0 0.0
76.5625 -0.0825144552805 0.15615244539 0.488560509874 -0.151186878541 0.0 0.0 0.0 0.0
76.578125 -0.08050099573 0.156901582389 0.487845735665 -0.153078005086 0.0 0.0 0.0 0.0
76.59375 -0.078482001558 0.157642563004 0.487123484053 -0.154966168691 0.0 0.0 0.0 0.0
76.609375 -0.0764579684938 0.158375136428 0.486393942614 -0.15685143159 0.0 0.0 0.0 0.0
76.625 -0.074429286524 0.159098988001 0.485656887166 -0.158733849919 0.0 0.0 0.0 0.0
76.640625 -0.0723962801627 0.159814034924 0.484912545535 -0.160613267842 0.0 0.0 0.0 0.0
76.65625 -0.0703594196984 0.160519797325 0.484160746881 -0.162489757338 0.0 0.0 0.0 0.0
76.671875 -0.0683190771849 0.161216149697 0.483401645449 -0.164363211189 0.0 0.0 0.0 0.0
76.6875 -0.0662756991899 0.161902860035 0.482635218762 -0.166233696923 0.0 0.0 0.0 0.0
76.703125 -0.0642295846532 0.162579520449 0.481861502997 -0.16810119446 0.0 0.0 0.0 0.0
76.71875 -0.0621812925911 0.163245921617 0.481080338091 -0.169965650872 0.0 0.0 0.0 0.0
76.734375 -0.060131105226 0.163901851443 0.480292070081 -0.171827011064 0.0 0.0 0.0 0.0
76.75 -0.058079373992 0.164546793896 0.479496397307 -0.173685369808 0.0 0.0 0.0 0.0
76.765625 -0.0560263645563 0.165180720663 0.478693507213 -0.17554061712 0.0 0.0 0.0 0.0
76.78125 -0.0539724520427 0.165803346301 0.477883311009 -0.177392669642 0.0 0.0 0.0 0.0
76.796875 -0.0519179583667 0.166414652224 0.477065885088 -0.179241721664 0.0 0.0 0.0 0.0
76.8125 -0.0498633213938 0.16701460755 0.476241251969 -0.181087549951 0.0 0.0 0.0 0.0
76.828125 -0.0478090506192 0.167602930388 0.475409424306 -0.182930199205 0.0 0.0 0.0 0.0
76.84375 -0.0457555279213 0.168179448133 0.474570205281 -0.184769632972 0.0 0.0 0.0 0.0
76.859375 -0.0437032909714 0.168744092979 0.473724032777 -0.186605879214 0.0 0.0 0.0 0.0
76.875 -0.0416530034048 0.169296325328 0.472870483129 -0.18843886694 0.0 0.0 0.0 0.0
76.890625 -0.0396051369476 0.169836204562 0.47200992854 -0.190268564669 0.0 0.0 0.0 0.0
76.90625 -0.0375601094816 0.170363651754 0.471142004863 -0.192094902626 0.0 0.0 0.0 0.0
76.921875 -0.0355184978712 0.17087816858 0.470267136518 -0.193917946681 0.0 0.0 0.0 0.0
76.9375 -0.0334807461248 0.171379884137 0.469385010987 -0.195737646071 0.0 0.0 0.0 0.0
76.953125 -0.03144742129 0.171868303566 0.468495781263 -0.197553920482 0.0 0.0 0.0 0.0
76.96875 -0.0294189275711 0.172343595407 0.467599457746 -0.199366814756 0.0 0.0 0.0 0.0
76.984375 -0.0273958009196 0.17280526511 0.466696110064 -0.201176233859 0.0 0.0 0.0 0.0
77.0 -0.0253785215903 0.17325333985 0.465785657924 -0.202982220911 0.0 0.0 0.0 0.0
77.015625 -0.0233676047694 0.173687514337 0.464868151202 -0.204784727463 0.0 0.0 0.0 0.0
77.03125 -0.0213635312406 0.174107763221 0.463943577518 -0.206583640817 0.0 0.0 0.0 0.0
77.046875 -0.0193668767965 0.174513740901 0.4630119444 -0.208379078726 0.0 0.0 0.0 0.0
77.0625 -0.0173781308137 0.174905366911 0.462073394488 -0.210170924188 0.0 0.0 0.0 0.0
77.078125 -0.015397767285 0.17528246411 0.461127846458 -0.211959219133 0.0 0.0 0.0 0.0
77.09375 -0.0134262756591 0.175645084127 0.460175328736 -0.213743831882 0.0 0.0 0.0 0.0
77.109375 -0.0114642359858 0.175992687623 0.459215771049 -0.215524845172 0.0 0.0 0.0 0.0
77.125 -0.00951220315728 0.176325298775 0.458249181127 -0.217302172549 0.0 0.0 0.0 0.0
77.140625 -0.00757059508071 0.176642731653 0.457275833365 -0.219075817405 0.0 0.0 0.0 0.0
77.15625 -0.00563999884813 0.176944960056 0.4562953976 -0.22084575749 0.0 0.0 0.0 0.0
77.171875 -0.0037209383014 0.177231547388 0.455308224561 -0.222611903472 0.0 0.0 0.0 0.0
77.1875 -0.00181388251389 0.177502633777 0.454314055012 -0.224374340201 0.0 0.0 0.0 0.0
77.203125 8.06197432026e-05 0.177758057321 0.453313000537 -0.226132900354 0.0 0.0 0.0 0.0
77.21875 0.00196190025521 0.177997414598 0.452305078404 -0.227887671781 0.0 0.0 0.0 0.0
77.234375 0.00382969780945 0.178220874837 0.451290313917 -0.229638539249 0.0 0.0 0.0 0.0
77.25 0.00568322706383 0.178428015384 0.450268723307 -0.231385590837 0.0 0.0 0.0 0.0
77.265625 0.00752211770736 0.178618883834 0.449240267605 -0.233128716016 0.0 0.0 0.0 0.0
77.28125 0.00934584256169 0.178793478546 0.448205089387 -0.234867878884 0.0 0.0 0.0 0.0
77.296875 0.0111538089294 0.178951355336 0.447162974683 -0.236603066514 0.0 0.0 0.0 0.0
77.3125 0.0129455224187 0.179092542514 0.446114155635 -0.238334252489 0.0 0.0 0.0 0.0
77.328125 0.0147205202527 0.179217010841 0.445058539568 -0.240061372666 0.0 0.0 0.0 0.0
77.34375 0.0164782278705 0.179324445777 0.443996164989 -0.241784528095 0.0 0.0 0.0 0.0
77.359375 0.0182182359237 0.17941497706 0.442927157611 -0.243503657949 0.0 0.0 0.0 0.0
77.375 0.0199400400245 0.179488366634 0.44185119051 -0.245218547963 0.0 0.0 0.0 0.0
77.390625 0.0216430419152 0.179544568079 0.440768650132 -0.246929357087 0.0 0.0 0.0 0.0
77.40625 0.023326818915 0.179583677731 0.439679395561 -0.248636050278 0.0 0.0 0.0 0.0
77.421875 0.0249908187561 0.179605427881 0.438583441844 -0.250338485298 0.0 0.0 0.0 0.0
77.4375 0.0266345017428 0.179609932339 0.437480736552 -0.252036751633 0.0 0.0 0.0 0.0
77.453125 0.02825733412 0.179597065106 0.436371410005 -0.253730675557 0.0 0.0 0.0 0.0
77.46875 0.0298587010284 0.179566734544 0.4352554641 -0.255420417701 0.0 0.0 0.0 0.0
77.484375 0.0314383084446 0.179519202548 0.43413280503 -0.257105751528 0.0 0.0 0.0 0.0
77.5 0.032995384381 0.179453857818 0.433003474658 -0.25878682149 0.0 0.0 0.0 0.0
77.515625 0.0345295859945 0.179370928163 0.431867525998 -0.260463427778 0.0 0.0 0.0 0.0
77.53125 0.0360402353888 0.179270317101 0.430724954957 -0.262135629651 0.0 0.0 0.0 0.0
77.546875 0.0375269132539 0.17915202242 0.429575758456 -0.263803270787 0.0 0.0 0.0 0.0
77.5625 0.0389890250236 0.179016056929 0.42842011779 -0.265466426041 0.0 0.0 0.0 0.0
77.578125 0.040426027836 0.178862239074 0.427257733811 -0.267125051581 0.0 0.0 0.0 0.0
77.59375 0.0418375295156 0.178690641194 0.42608898167 -0.268779067457 0.0 0.0 0.0 0.0
77.609375 0.0432230098165 0.17850121909 0.424913750164 -0.270428546766 0.0 0.0 0.0 0.0
77.625 0.0445819405779 0.178293910231 0.423731997956 -0.272073347269 0.0 0.0 0.0 0.0
77.640625 0.0459138038521 0.178068900357 0.422543798409 -0.273713558708 0.0 0.0 0.0 0.0
77.65625 0.0472182117926 0.177825988322 0.421349088231 -0.275349023417 0.0 0.0 0.0 0.0
77.671875 0.0484945935212 0.177565249236 0.420148004815 -0.276979833807 0.0 0.0 0.0 0.0
77.6875 0.0497425031259 0.177286831998 0.418940490756 -0.278605875438 0.0 0.0 0.0 0.0
77.703125 0.0509613552315 0.176990379807 0.417726571872 -0.280227208547 0.0 0.0 0.0 0.0
77.71875 0.0521506815246 0.176676219257 0.416506279155 -0.281843736149 0.0 0.0 0.0 0.0
77.734375 0.0533100907331 0.176344298405 0.415279561496 -0.283455385784 0.0 0.0 0.0 0.0
77.75 0.0544390128769 0.175994640928 0.414046535318 -0.285062279964 0.0 0.0 0.0 0.0
77.765625 0.0555369883029 0.175627197993 0.412807160817 -0.286664232178 0.0 0.0 0.0 0.0
77.78125 0.0566035416268 0.175242097691 0.411561440537 -0.288261287163 0.0 0.0 0.0 0.0
77.796875 0.0576381947507 0.174839196261 0.410309369557 -0.289853402936 0.0 0.0 0.0 0.0
77.8125 0.0586405276329 0.174418588891 0.409051113833 -0.29144053552 0.0 0.0 0.0 0.0
77.828125 0.059610077796 0.173980367284 0.407786453892 -0.293022613258 0.0 0.0 0.0 0.0
77.84375 0.0605463775064 0.173524651106 0.406515520295 -0.294599689817 0.0 0.0 0.0 0.0
77.859375 0.061448989632 0.17305131927 0.405238437264 -0.296171734178 0.0 0.0 0.0 0.0
77.875 0.0623174367911 0.172560333691 0.403955047887 -0.297738634327 0.0 0.0 0.0 0.0
77.890625 0.0631514026014 0.172051924929 0.402665442259 -0.299300499546 0.0 0.0 0.0 0.0
77.90625 0.0639503522559 0.171526108749 0.40136952405 -0.300857135113 0.0 0.0 0.0 0.0
77.921875 0.0647139374937 0.170982946422 0.400067527479 -0.302408550458 0.0 0.0 0.0 0.0
77.9375 0.0654418121487 0.170422396476 0.398759301996 -0.303954717559 0.0 0.0 0.0 0.0
77.953125 0.0661334382917 0.169844691371 0.397444848616 -0.30549567989 0.0 0.0 0.0 0.0
77.96875 0.066788460078 0.169249680448 0.396124268262 -0.307031305527 0.0 0.0 0.0 0.0
77.984375 0.0674065121954 0.16863761096 0.394797475324 -0.308561570918 0.0 0.0 0.0 0.0
78.0 0.0679872742559 0.168008398341 0.393464619106 -0.310086508465 0.0 0.0 0.0 0.0
78.015625 0.0685303850081 0.16736219783 0.392125567334 -0.311605887074 0.0 0.0 0.0 0.0
78.03125 0.0690354932689 0.166699384586 0.390780600123 -0.313119886459 0.0 0.0 0.0 0.0
78.046875 0.0695021925881 0.166019637757 0.389429397695 -0.314628422775 0.0 0.0 0.0 0.0
78.0625 0.069930194233 0.165323306319 0.388072299002 -0.316131426501 0.0 0.0 0.0 0.0
78.078125 0.0703191659324 0.164610446489 0.386709049911 -0.317628776965 0.0 0.0 0.0 0.0
78.09375 0.0706687730821 0.163881170143 0.385339864062 -0.319120518751 0.0 0.0 0.0 0.0
78.109375 0.0709786409531 0.163135789444 0.383964678534 -0.32060668657 0.0 0.0 0.0 0.0
78.125 0.0712485355765 0.162374333133 0.382583537732 -0.322087100116 0.0 0.0 0.0 0.0
78.140625 0.0714779594234 0.161596810348 0.381196566827 -0.323562039008 0.0 0.0 0.0 0.0
78.15625 0.0716666889352 0.160803485948 0.379803456125 -0.325030978308 0.0 0.0 0.0 0.0
78.171875 0.0718144339699 0.159994454937 0.378404689969 -0.326494241838 0.0 0.0 0.0 0.0
78.1875 0.0719209252495 0.159169838684 0.376999868388 -0.327951749305 0.0 0.0 0.0 0.0
78.203125 0.0719857815961 0.158329824151 0.375589356095 -0.329403375288 0.0 0.0 0.0 0.0
78.21875 0.0720087847585 0.157474477361 0.374172858659 -0.330849126223 0.0 0.0 0.0 0.0
78.234375 0.07198962692 0.156604025362 0.372750783408 -0.332288916498 0.0 0.0 0.0 0.0
78.25 0.0719280674082 0.155718472064 0.371322725265 -0.33372287457 0.0 0.0 0.0 0.0
78.265625 0.0718237954748 0.154818120006 0.369889072694 -0.335150856102 0.0 0.0 0.0 0.0
78.28125 0.0716766639264 0.153903086928 0.368449621141 -0.336572764614 0.0 0.0 0.0 0.0
78.296875 0.0714864303816 0.152973612097 0.367004451976 -0.337988716857 0.0 0.0 0.0 0.0
78.3125 0.0712527701993 0.152029805183 0.365553614314 -0.33939862132 0.0 0.0 0.0 0.0
78.328125 0.0709756980409 0.151071858217 0.364097195722 -0.340802467426 0.0 0.0 0.0 0.0
78.34375 0.0706547418598 0.150099701538 0.362634956444 -0.342200073911 0.0 0.0 0.0 0.0
78.359375 0.0702899620979 0.149113800691 0.361167240718 -0.343591716665 0.0 0.0 0.0 0.0
78.375 0.069881022995 0.148114217118 0.359693880764 -0.344977098387 0.0 0.0 0.0 0.0
78.390625 0.0694279269691 0.147101129989 0.358214896599 -0.346356280615 0.0 0.0 0.0 0.0
78.40625 0.0689303029171 0.146074750776 0.356730235766 -0.347729162772 0.0 0.0 0.0 0.0
78.421875 0.0683881541349 0.145035169733 0.355240209483 -0.349095859709 0.0 0.0 0.0 0.0
78.4375 0.0678013489044 0.143982690631 0.353744605992 -0.350456161811 0.0 0.0 0.0 0.0
78.453125 0.0671696341303 0.142917338638 0.352243487611 -0.351810126288 0.0 0.0 0.0 0.0
78.46875 0.0664930661147 0.141839373391 0.350736908937 -0.353157663351 0.0 0.0 0.0 0.0
78.484375 0.0657713677085 0.140749047315 0.349224859348 -0.354498710878 0.0 0.0 0.0 0.0
78.5 0.0650046264714 0.139646507628 0.347707357959 -0.355833330717 0.0 0.0 0.0 0.0
78.515625 0.0641925750126 0.138531962241 0.346184574751 -0.357161551245 0.0 0.0 0.0 0.0
78.53125 0.0633353801527 0.137405608121 0.344656437812 -0.358483104751 0.0 0.0 0.0 0.0
