!SWISSto12 MCK measurement data
!name=Sample_wheel_rubber_1
!thickness[mm]=12.500
# GHz S RI R 50.0 
!freq ReS11 ImS11 ReS21 ImS21 ReS12 ImS12 ReS22 ImS22
75.0 0.0112198015369 0.429987611287 -1.08834431201e-05 -0.0296349766611 0.0 0.0 0.0 0.0
75.015625 0.0126339114291 0.429696961448 -0.000309835288293 -0.0296437604699 0.0 0.0 0.0 0.0
75.03125 0.0140527227567 0.429420146927 -0.000609127264987 -0.0296493324511 0.0 0.0 0.0 0.0
75.046875 0.015477119471 0.429156583589 -0.000908719607276 -0.0296516979702 0.0 0.0 0.0 0.0
75.0625 0.0169096925935 0.428908536271 -0.00120858002792 -0.0296508431189 0.0 0.0 0.0 0.0
75.078125 0.0183475215688 0.428677056519 -0.00150867254833 -0.0296467674697 0.0 0.0 0.0 0.0
75.09375 0.0197898019585 0.428461537659 -0.00180896526189 -0.0296394707716 0.0 0.0 0.0 0.0
75.109375 0.0212362343708 0.428261292832 -0.00210940967925 -0.0296289411362 0.0 0.0 0.0 0.0
75.125 0.0226867728942 0.428076242944 -0.00240998613051 -0.0296151848507 0.0 0.0 0.0 0.0
75.140625 0.0241411829706 0.427905994229 -0.0027106492913 -0.0295981841254 0.0 0.0 0.0 0.0
75.15625 0.0255995184298 0.42775026065 -0.0030113762064 -0.0295779524167 0.0 0.0 0.0 0.0
75.171875 0.027061619347 0.42760903201 -0.00331211016972 -0.0295544806384 0.0 0.0 0.0 0.0
75.1875 0.02852747609 0.427481964104 -0.00361283427837 -0.0295277626211 0.0 0.0 0.0 0.0
75.203125 0.0299968661867 0.42736899074 -0.00391349781965 -0.0294978094666 0.0 0.0 0.0 0.0
75.21875 0.031469893378 0.427269816228 -0.00421408218337 -0.0294646023562 0.0 0.0 0.0 0.0
75.234375 0.0329463262613 0.427184290665 -0.00451453381473 -0.0294281604798 0.0 0.0 0.0 0.0
75.25 0.0344262129749 0.4271122011 -0.00481482312169 -0.0293884738533 0.0 0.0 0.0 0.0
75.265625 0.0359094350242 0.427053422077 -0.00511491455307 -0.0293455468817 0.0 0.0 0.0 0.0
75.28125 0.0373959072706 0.427007570406 -0.00541476798448 -0.0292993586224 0.0 0.0 0.0 0.0
75.296875 0.0388855741361 0.426974642301 -0.00571435371916 -0.0292499464951 0.0 0.0 0.0 0.0
75.3125 0.0403783562406 0.42695438034 -0.00601363557072 -0.0291972895781 0.0 0.0 0.0 0.0
75.328125 0.041874173439 0.426946554758 -0.00631257286617 -0.0291413882321 0.0 0.0 0.0 0.0
75.34375 0.0433730517354 0.426950881516 -0.00661112538295 -0.0290822634462 0.0 0.0 0.0 0.0
75.359375 0.0448746848429 0.426967232118 -0.0069092639132 -0.0290198939591 0.0 0.0 0.0 0.0
75.375 0.0463792737064 0.426995406298 -0.00720694467457 -0.0289543025344 0.0 0.0 0.0 0.0
75.390625 0.0478866032623 0.427035107772 -0.00750413352395 -0.0288854832932 0.0 0.0 0.0 0.0
75.40625 0.0493965814046 0.427086149834 -0.00780079940752 -0.0288134433407 0.0 0.0 0.0 0.0
75.421875 0.0509091133295 0.427148349679 -0.00809690380519 -0.0287381921416 0.0 0.0 0.0 0.0
75.4375 0.052424254883 0.427221366694 -0.00839239912018 -0.0286597219126 0.0 0.0 0.0 0.0
75.453125 0.0539418924847 0.427304930008 -0.00868726396633 -0.0285780587756 0.0 0.0 0.0 0.0
75.46875 0.0554619622696 0.42739874157 -0.00898145649426 -0.028493187266 0.0 0.0 0.0 0.0
75.484375 0.056984275175 0.42750290437 -0.00927493697256 -0.0284051399346 0.0 0.0 0.0 0.0
75.5 0.0585089257526 0.427616627295 -0.00956767852056 -0.0283138974676 0.0 0.0 0.0 0.0
75.515625 0.0600358116419 0.427739862567 -0.00985963245646 -0.0282194895879 0.0 0.0 0.0 0.0
75.53125 0.0615648523698 0.42787232299 -0.0101507736809 -0.028121903921 0.0 0.0 0.0 0.0
75.546875 0.0630959559223 0.428013676917 -0.0104410654566 -0.0280211671724 0.0 0.0 0.0 0.0
75.5625 0.0646291853626 0.42816349878 -0.0107304699394 -0.0279172791259 0.0 0.0 0.0 0.0
75.578125 0.0661645333434 0.428321324593 -0.0110189440578 -0.0278102491128 0.0 0.0 0.0 0.0
75.59375 0.0677021294807 0.428486860983 -0.0113064621175 -0.0277000872465 0.0 0.0 0.0 0.0
75.609375 0.0692423810355 0.428659381773 -0.0115929813464 -0.0275868037672 0.0 0.0 0.0 0.0
75.625 0.0707862947976 0.428838996958 -0.0118784763657 -0.0274704093369 0.0 0.0 0.0 0.0
75.640625 0.072334096699 0.42902741491 -0.0121629047202 -0.0273509150932 0.0 0.0 0.0 0.0
75.65625 0.0738843492669 0.429224408201 -0.0124462322672 -0.0272283219334 0.0 0.0 0.0 0.0
75.671875 0.0754363207236 0.429429814874 -0.0127284121418 -0.0271026515009 0.0 0.0 0.0 0.0
75.6875 0.0769898687656 0.429643182877 -0.0130094339704 -0.0269739090133 0.0 0.0 0.0 0.0
75.703125 0.0785447517398 0.429863883671 -0.0132892343111 -0.0268421179627 0.0 0.0 0.0 0.0
75.71875 0.0801008539251 0.430091705239 -0.0135677894694 -0.0267072835619 0.0 0.0 0.0 0.0
75.734375 0.0816580463505 0.4303263905 -0.0138450680332 -0.0265694223449 0.0 0.0 0.0 0.0
75.75 0.0832162112897 0.430567460603 -0.0141210186314 -0.0264285470371 0.0 0.0 0.0 0.0
75.765625 0.0847751936313 0.430814590572 -0.0143956243565 -0.0262846676822 0.0 0.0 0.0 0.0
75.78125 0.0863350038667 0.431067718199 -0.0146688474414 -0.0261378057282 0.0 0.0 0.0 0.0
75.796875 0.0878953487015 0.431326473661 -0.0149406440417 -0.0259879717644 0.0 0.0 0.0 0.0
75.8125 0.0894562722547 0.431590418867 -0.0152109907751 -0.0258351804383 0.0 0.0 0.0 0.0
75.828125 0.0910176070395 0.431859280908 -0.015479847338 -0.02567945667 0.0 0.0 0.0 0.0
75.84375 0.0925793409637 0.432132977469 -0.0157471806977 -0.0255208064621 0.0 0.0 0.0 0.0
75.859375 0.0941410900088 0.432410836037 -0.0160129545167 -0.0253592537315 0.0 0.0 0.0 0.0
75.875 0.0957030559276 0.432692976034 -0.016277143048 -0.0251948164162 0.0 0.0 0.0 0.0
75.890625 0.0972649147984 0.432978785094 -0.0165397068818 -0.0250275059585 0.0 0.0 0.0 0.0
75.90625 0.0988267451884 0.433268133637 -0.016800610285 -0.0248573399214 0.0 0.0 0.0 0.0
75.921875 0.100388136732 0.433560627414 -0.0170598177488 -0.0246843363842 0.0 0.0 0.0 0.0
75.9375 0.101949216831 0.433856124463 -0.0173173119352 -0.0245085254693 0.0 0.0 0.0 0.0
75.953125 0.10350972525 0.434154144478 -0.0175730472178 -0.0243299173716 0.0 0.0 0.0 0.0
75.96875 0.105069722645 0.434454557598 -0.0178269960359 -0.0241485343966 0.0 0.0 0.0 0.0
75.984375 0.106628780348 0.434756997932 -0.018079120853 -0.0239643986041 0.0 0.0 0.0 0.0
76.0 0.108186942933 0.43506105959 -0.0183293962953 -0.0237775152551 0.0 0.0 0.0 0.0
76.015625 0.109744147626 0.43536666447 -0.0185777868864 -0.023587922591 0.0 0.0 0.0 0.0
76.03125 0.11130019513 0.435673208706 -0.0188242613348 -0.023395631456 0.0 0.0 0.0 0.0
76.046875 0.112855000467 0.43598056605 -0.0190687965796 -0.0232006632719 0.0 0.0 0.0 0.0
76.0625 0.114408367522 0.436288434161 -0.0193113502892 -0.0230030473142 0.0 0.0 0.0 0.0
76.078125 0.115960352566 0.436596545355 -0.0195518885903 -0.0228027982967 0.0 0.0 0.0 0.0
76.09375 0.117510685191 0.436904356271 -0.0197903923 -0.0225999361051 0.0 0.0 0.0 0.0
76.109375 0.119059242226 0.437211667597 -0.0200268289276 -0.0223945014516 0.0 0.0 0.0 0.0
76.125 0.120606219809 0.437518087661 -0.0202611639708 -0.0221864847051 0.0 0.0 0.0 0.0
76.140625 0.122151473568 0.437823365312 -0.0204933699547 -0.021975932415 0.0 0.0 0.0 0.0
76.15625 0.123695191166 0.438127102423 -0.0207234070203 -0.0217628770637 0.0 0.0 0.0 0.0
76.171875 0.125237408634 0.438429484588 -0.0209512612082 -0.0215473090013 0.0 0.0 0.0 0.0
76.1875 0.126778089124 0.43873087608 -0.0211769055957 -0.0213292858932 0.0 0.0 0.0 0.0
76.203125 0.12831631707 0.439031012106 -0.0214002933148 -0.0211088218306 0.0 0.0 0.0 0.0
76.21875 0.129851912378 0.439329574281 -0.0216214083025 -0.02088592852 0.0 0.0 0.0 0.0
76.234375 0.131384514772 0.439626085894 -0.0218402170402 -0.0206606453147 0.0 0.0 0.0 0.0
76.25 0.132913821307 0.439920288478 -0.0220566929566 -0.020432995909 0.0 0.0 0.0 0.0
76.265625 0.134439662698 0.440211750499 -0.0222708097221 -0.0202030042997 0.0 0.0 0.0 0.0
76.28125 0.135961834397 0.440500153991 -0.0224825408697 -0.0199707051575 0.0 0.0 0.0 0.0
76.296875 0.13747991448 0.440785326625 -0.0226918511941 -0.0197361040447 0.0 0.0 0.0 0.0
76.3125 0.138994094064 0.441067011094 -0.0228987248947 -0.0194992347241 0.0 0.0 0.0 0.0
76.328125 0.140504163406 0.441344912419 -0.0231031213121 -0.019260130454 0.0 0.0 0.0 0.0
76.34375 0.142010104186 0.441618538701 -0.0233050360469 -0.0190188235111 0.0 0.0 0.0 0.0
76.359375 0.143511445142 0.441887620158 -0.0235044141084 -0.018775335519 0.0 0.0 0.0 0.0
76.375 0.145008195975 0.442151784163 -0.0237012515671 -0.0185296888234 0.0 0.0 0.0 0.0
76.390625 0.14650008378 0.442410801044 -0.0238955198675 -0.018281926638 0.0 0.0 0.0 0.0
76.40625 0.147986908774 0.442664281189 -0.0240871846814 -0.0180320575556 0.0 0.0 0.0 0.0
76.421875 0.149468405214 0.442912044128 -0.0242762236426 -0.017780129812 0.0 0.0 0.0 0.0
76.4375 0.150944440586 0.443153538186 -0.0244626134329 -0.0175261607723 0.0 0.0 0.0 0.0
76.453125 0.152414831913 0.443388850117 -0.02464633222 -0.0172701887969 0.0 0.0 0.0 0.0
76.46875 0.15387930339 0.443617227634 -0.0248273625112 -0.0170122355111 0.0 0.0 0.0 0.0
76.484375 0.155337537823 0.443838583823 -0.0250056669328 -0.0167523285581 0.0 0.0 0.0 0.0
76.5 0.156789537192 0.444052802688 -0.0251812293618 -0.0164905006336 0.0 0.0 0.0 0.0
76.515625 0.158234942789 0.444259317768 -0.0253540310632 -0.0162268015158 0.0 0.0 0.0 0.0
76.53125 0.159673563518 0.44445805047 -0.0255240490637 -0.0159612399083 0.0 0.0 0.0 0.0
76.546875 0.161105142348 0.444648559825 -0.0256912431202 -0.0156938522197 0.0 0.0 0.0 0.0
76.5625 0.162529461295 0.444830526466 -0.0258556143042 -0.0154246721928 0.0 0.0 0.0 0.0
76.578125 0.163946302191 0.445003823642 -0.0260171332335 -0.0151537334561 0.0 0.0 0.0 0.0
76.59375 0.165355486778 0.445167892797 -0.026175778925 -0.0148810563251 0.0 0.0 0.0 0.0
76.609375 0.166756562042 0.445322720085 -0.026331535974 -0.0146066920631 0.0 0.0 0.0 0.0
76.625 0.168149564977 0.445467802678 -0.0264843725368 -0.0143306550969 0.0 0.0 0.0 0.0
76.640625 0.169534165379 0.445603108104 -0.0266342781721 -0.0140529902408 0.0 0.0 0.0 0.0
76.65625 0.170910159831 0.445728052202 -0.0267812234835 -0.0137737229515 0.0 0.0 0.0 0.0
76.671875 0.172277133965 0.445842578482 -0.0269251992222 -0.0134928983949 0.0 0.0 0.0 0.0
76.6875 0.17363512048 0.445946205328 -0.0270661957076 -0.013210534159 0.0 0.0 0.0 0.0
76.703125 0.174983771088 0.446038708789 -0.0272041807286 -0.0129266637781 0.0 0.0 0.0 0.0
76.71875 0.176322824485 0.446119746324 -0.0273391284909 -0.012641324393 0.0 0.0 0.0 0.0
76.734375 0.177652290766 0.446189320416 -0.0274710504912 -0.0123545526545 0.0 0.0 0.0 0.0
76.75 0.178971797704 0.446246648243 -0.0275999038281 -0.0120663777407 0.0 0.0 0.0 0.0
76.765625 0.180281459752 0.446292000682 -0.0277256762576 -0.0117768430821 0.0 0.0 0.0 0.0
76.78125 0.181581007905 0.446325034925 -0.0278483563286 -0.0114859747947 0.0 0.0 0.0 0.0
76.796875 0.182870231773 0.446345898648 -0.0279679266877 -0.0111938139222 0.0 0.0 0.0 0.0
76.8125 0.18414869284 0.446354521226 -0.0280843764701 -0.0109003868297 0.0 0.0 0.0 0.0
76.828125 0.185416007643 0.446350467432 -0.0281976830313 -0.0106057326004 0.0 0.0 0.0 0.0
76.84375 0.186671983153 0.446333769115 -0.0283078360272 -0.0103098780297 0.0 0.0 0.0 0.0
76.859375 0.1879165438 0.446304237567 -0.0284148171796 -0.0100128726425 0.0 0.0 0.0 0.0
76.875 0.189148984009 0.446261025647 -0.0285186107258 -0.00971474140787 0.0 0.0 0.0 0.0
76.890625 0.190369203113 0.446204069964 -0.0286192109447 -0.00941552133597 0.0 0.0 0.0 0.0
76.90625 0.191576692186 0.446133338134 -0.0287165912462 -0.00911525094523 0.0 0.0 0.0 0.0
76.921875 0.192771171397 0.446048354262 -0.0288107619115 -0.00881396383867 0.0 0.0 0.0 0.0
76.9375 0.193952317665 0.445949038989 -0.0289016845784 -0.0085116951547 0.0 0.0 0.0 0.0
76.953125 0.195119755393 0.445834871884 -0.0289893594812 -0.00820849211663 0.0 0.0 0.0 0.0
76.96875 0.196273358175 0.445706069957 -0.0290737812791 -0.00790437491487 0.0 0.0 0.0 0.0
76.984375 0.197412467559 0.445562123482 -0.0291549234814 -0.00759939138318 0.0 0.0 0.0 0.0
77.0 0.198537097535 0.445402928972 -0.0292327939572 -0.00729356542586 0.0 0.0 0.0 0.0
77.015625 0.19964687272 0.445228146618 -0.0293073718534 -0.00698695476335 0.0 0.0 0.0 0.0
77.03125 0.200741396631 0.445037712476 -0.0293786483105 -0.00667957076166 0.0 0.0 0.0 0.0
77.046875 0.201820233073 0.444831319319 -0.0294466101187 -0.00637147336761 0.0 0.0 0.0 0.0
77.0625 0.202883214787 0.444608628315 -0.0295112616339 -0.00606267699446 0.0 0.0 0.0 0.0
77.078125 0.203930000931 0.44436970568 -0.0295725764852 -0.00575324699394 0.0 0.0 0.0 0.0
77.09375 0.204960362941 0.444114392686 -0.0296305610459 -0.0054431900421 0.0 0.0 0.0 0.0
77.109375 0.205973692137 0.443842176196 -0.0296852047483 -0.00513256657283 0.0 0.0 0.0 0.0
77.125 0.206969852073 0.443552948868 -0.0297364983228 -0.00482139659617 0.0 0.0 0.0 0.0
77.140625 0.207948544158 0.443246562769 -0.0297844339483 -0.00450973305824 0.0 0.0 0.0 0.0
77.15625 0.20890949388 0.442922921312 -0.0298290082418 -0.00419760522113 0.0 0.0 0.0 0.0
77.171875 0.209852090328 0.442581674207 -0.0298702168756 -0.00388505029585 0.0 0.0 0.0 0.0
77.1875 0.210776213297 0.442222748766 -0.0299080615592 -0.00357211427944 0.0 0.0 0.0 0.0
77.203125 0.211681709957 0.441846001045 -0.0299425145168 -0.00325881546293 0.0 0.0 0.0 0.0
77.21875 0.212567772714 0.44145097811 -0.029973584753 -0.0029452010238 0.0 0.0 0.0 0.0
77.234375 0.213434531832 0.44103797517 -0.0300012813888 -0.00263132563536 0.0 0.0 0.0 0.0
77.25 0.214281499849 0.440606304143 -0.0300255775929 -0.00231720845273 0.0 0.0 0.0 0.0
77.265625 0.215108377516 0.440156116733 -0.0300464841983 -0.0020028963367 0.0 0.0 0.0 0.0
77.28125 0.21591475165 0.439687326437 -0.0300639943819 -0.00168841048981 0.0 0.0 0.0 0.0
77.296875 0.216700409282 0.439199513735 -0.0300781058414 -0.00137381271468 0.0 0.0 0.0 0.0
77.3125 0.217465094018 0.438692613896 -0.0300888260107 -0.00105911700373 0.0 0.0 0.0 0.0
77.328125 0.218208400157 0.438166551285 -0.0300961407405 -0.000744384634082 0.0 0.0 0.0 0.0
77.34375 0.21893001809 0.437621148201 -0.0301000577065 -0.000429637642467 0.0 0.0 0.0 0.0
77.359375 0.219629795728 0.437056393455 -0.03010057768 -0.000114913770352 0.0 0.0 0.0 0.0
77.375 0.220307313868 0.43647217464 -0.0300976887492 0.000199733144987 0.0 0.0 0.0 0.0
77.390625 0.220962236817 0.435868253352 -0.0300914192128 0.000514281486447 0.0 0.0 0.0 0.0
77.40625 0.221594286353 0.43524478906 -0.0300817314881 0.00082869292079 0.0 0.0 0.0 0.0
77.421875 0.222202982695 0.434601538784 -0.0300686617201 0.00114291424089 0.0 0.0 0.0 0.0
77.4375 0.222788026535 0.433938324836 -0.0300521857641 0.0014569308341 0.0 0.0 0.0 0.0
77.453125 0.223349105273 0.433255223521 -0.0300323279576 0.00177068171165 0.0 0.0 0.0 0.0
77.46875 0.223885925233 0.432551916653 -0.0300090782954 0.00208414450369 0.0 0.0 0.0 0.0
77.484375 0.224397994864 0.431828827764 -0.0299824482429 0.00239727392704 0.0 0.0 0.0 0.0
77.5 0.224884994045 0.431085155332 -0.0299524346871 0.00271004780633 0.0 0.0 0.0 0.0
77.515625 0.225346779423 0.430321277055 -0.0299190375265 0.00302241182216 0.0 0.0 0.0 0.0
77.53125 0.225782893302 0.429536959148 -0.0298822748092 0.00333433759851 0.0 0.0 0.0 0.0
77.546875 0.226193318067 0.428732105631 -0.029842140347 0.00364577825032 0.0 0.0 0.0 0.0
77.5625 0.226577378765 0.427906613046 -0.0297986387094 0.00395671201825 0.0 0.0 0.0 0.0
77.578125 0.226934881233 0.427060313982 -0.0297517733849 0.00426707658577 0.0 0.0 0.0 0.0
77.59375 0.227265535884 0.426193129435 -0.029701568106 0.00457686109153 0.0 0.0 0.0 0.0
77.609375 0.227569040793 0.425305085473 -0.02964800684 0.00488600843908 0.0 0.0 0.0 0.0
77.625 0.227844888708 0.424396086739 -0.0295911175526 0.00519448441349 0.0 0.0 0.0 0.0
77.640625 0.228092862719 0.423466162134 -0.0295308881117 0.00550225633981 0.0 0.0 0.0 0.0
77.65625 0.228312647323 0.422515282079 -0.0294673485651 0.00580928274545 0.0 0.0 0.0 0.0
77.671875 0.228503872655 0.421543306086 -0.0294004940068 0.00611553209974 0.0 0.0 0.0 0.0
77.6875 0.228666228434 0.420550460606 -0.0293303424869 0.00642096099945 0.0 0.0 0.0 0.0
77.703125 0.228799392469 0.419536270173 -0.0292569027343 0.00672554062106 0.0 0.0 0.0 0.0
77.71875 0.228902936037 0.418500986293 -0.0291801726294 0.0070292313418 0.0 0.0 0.0 0.0
77.734375 0.22897672545 0.417444589498 -0.0291001736861 0.00733198247545 0.0 0.0 0.0 0.0
77.75 0.229020308145 0.416367125528 -0.0290169246196 0.00763378423938 0.0 0.0 0.0 0.0
77.765625 0.22903341912 0.41526831047 -0.0289304201343 0.00793458773326 0.0 0.0 0.0 0.0
77.78125 0.229015672727 0.414148414261 -0.0288406960921 0.00823434667751 0.0 0.0 0.0 0.0
77.796875 0.228966930408 0.413007224419 -0.0287477358846 0.00853303344645 0.0 0.0 0.0 0.0
77.8125 0.228886683318 0.411844627108 -0.0286515717531 0.00883061764852 0.0 0.0 0.0 0.0
77.828125 0.228774762372 0.410661101674 -0.0285522148539 0.00912707143788 0.0 0.0 0.0 0.0
77.84375 0.228630978805 0.409456172695 -0.0284496739755 0.00942233258687 0.0 0.0 0.0 0.0
77.859375 0.22845475618 0.408230067258 -0.028343971393 0.00971638513816 0.0 0.0 0.0 0.0
77.875 0.228245972254 0.406982653592 -0.0282351130342 0.0100091995 0.0 0.0 0.0 0.0
77.890625 0.228004466543 0.405714097438 -0.0281231194157 0.0103007256839 0.0 0.0 0.0 0.0
77.90625 0.22772979242 0.404424414387 -0.0280080036124 0.0105909365121 0.0 0.0 0.0 0.0
77.921875 0.227421825034 0.403113540653 -0.0278897849077 0.0108798072732 0.0 0.0 0.0 0.0
77.9375 0.227080184635 0.401781569183 -0.0277684733443 0.0111673012809 0.0 0.0 0.0 0.0
77.953125 0.22670473369 0.400428498734 -0.027644088613 0.0114533597122 0.0 0.0 0.0 0.0
77.96875 0.226295126927 0.399054313929 -0.0275166480617 0.0117379831381 0.0 0.0 0.0 0.0
77.984375 0.225851106931 0.397659253557 -0.0273861631398 0.0120211179778 0.0 0.0 0.0 0.0
78.0 0.225372598009 0.396243234687 -0.0272526638993 0.0123027359726 0.0 0.0 0.0 0.0
78.015625 0.224859238809 0.394806265065 -0.0271161440612 0.0125828102095 0.0 0.0 0.0 0.0
78.03125 0.224310945297 0.393348811474 -0.0269766442388 0.0128612911713 0.0 0.0 0.0 0.0
78.046875 0.223727216989 0.391870702207 -0.0268341861769 0.0131381562127 0.0 0.0 0.0 0.0
78.0625 0.223108119518 0.390372002609 -0.0266887811313 0.0134133599644 0.0 0.0 0.0 0.0
78.078125 0.22245322115 0.388852848044 -0.0265404383488 0.0136868912598 0.0 0.0 0.0 0.0
78.09375 0.221762404123 0.387313408179 -0.0263891967493 0.0139587096935 0.0 0.0 0.0 0.0
78.109375 0.221035263785 0.385753917586 -0.026235061516 0.014228784369 0.0 0.0 0.0 0.0
78.125 0.220271762257 0.384174499768 -0.0260780669392 0.0144970727187 0.0 0.0 0.0 0.0
78.140625 0.219471534406 0.382575032621 -0.0259182363015 0.0147635537148 0.0 0.0 0.0 0.0
78.15625 0.218634332446 0.380955681144 -0.025755570187 0.0150281934565 0.0 0.0 0.0 0.0
78.171875 0.217760077936 0.379316750075 -0.0255901171606 0.0152909673121 0.0 0.0 0.0 0.0
78.1875 0.216848511109 0.377658191168 -0.0254218826102 0.0155518348833 0.0 0.0 0.0 0.0
78.203125 0.215899565542 0.375980139263 -0.0252508962213 0.0158107794445 0.0 0.0 0.0 0.0
78.21875 0.214912689402 0.374282886156 -0.0250771739748 0.0160677573476 0.0 0.0 0.0 0.0
78.234375 0.213888101469 0.372566515951 -0.0249007546374 0.0163227392975 0.0 0.0 0.0 0.0
78.25 0.212825334837 0.370831032388 -0.0247216477372 0.0165757057557 0.0 0.0 0.0 0.0
78.265625 0.211724441883 0.369076836759 -0.0245398869683 0.0168266246524 0.0 0.0 0.0 0.0
78.28125 0.210585234537 0.367303754041 -0.0243554858619 0.0170754598612 0.0 0.0 0.0 0.0
78.296875 0.209407511698 0.365512333204 -0.0241684805181 0.017322200571 0.0 0.0 0.0 0.0
78.3125 0.208191237439 0.363702454346 -0.0239788989808 0.0175667918887 0.0 0.0 0.0 0.0
78.328125 0.206936188282 0.361874521748 -0.0237867484424 0.0178092418136 0.0 0.0 0.0 0.0
78.34375 0.205642191795 0.360028188748 -0.0235920826415 0.018049484761 0.0 0.0 0.0 0.0
78.359375 0.204309172899 0.358164228708 -0.0233948984396 0.0182875212226 0.0 0.0 0.0 0.0
78.375 0.202937170476 0.356282445576 -0.0231952466491 0.018523313529 0.0 0.0 0.0 0.0
78.390625 0.201525925472 0.354383171262 -0.0229931436499 0.0187568375157 0.0 0.0 0.0 0.0
78.40625 0.200075334289 0.352466612632 -0.022788611094 0.0189880628471 0.0 0.0 0.0 0.0
78.421875 0.198585352695 0.350532907894 -0.0225816909366 0.0192169761902 0.0 0.0 0.0 0.0
78.4375 0.197055885734 0.348582367222 -0.0223723902112 0.0194435454774 0.0 0.0 0.0 0.0
78.453125 0.195486898246 0.346614903859 -0.0221607565861 0.0196677420368 0.0 0.0 0.0 0.0
78.46875 0.19387823823 0.344631018097 -0.0219468130546 0.0198895369603 0.0 0.0 0.0 0.0
