!SWISSto12 MCK measurement data
!name=Sample_wheel_rubber_2
!thickness[mm]=12.500
# GHz S RI R 50.0 
!freq ReS11 ImS11 ReS21 ImS21 ReS12 ImS12 ReS22 ImS22
75.0 -0.677982159242 0.146594532509 0.00401969457468 -0.028516527011 0.0 0.0 0.0 0.0
75.015625 -0.678543298545 0.150403051377 0.0037412311001 -0.0285609326496 0.0 0.0 0.0 0.0
75.03125 -0.679064015696 0.15421721921 0.00346211371364 -0.0286025258553 0.0 0.0 0.0 0.0
75.046875 -0.679543443277 0.158036245812 0.00318237161997 -0.0286412963676 0.0 0.0 0.0 0.0
75.0625 -0.679979386554 0.161862112872 0.00290204245733 -0.028677239758 0.0 0.0 0.0 0.0
75.078125 -0.680374081063 0.165695073247 0.00262114794064 -0.0287103473292 0.0 0.0 0.0 0.0
75.09375 -0.680727996378 0.169534111875 0.00233971321304 -0.0287406037693 0.0 0.0 0.0 0.0
75.109375 -0.681041133811 0.173378348738 0.00205777709904 -0.0287680183523 0.0 0.0 0.0 0.0
75.125 -0.681313061051 0.177227401968 0.00177536017818 -0.0287925640427 0.0 0.0 0.0 0.0
75.140625 -0.68154375623 0.18108055284 0.00149249287561 -0.0288142386687 0.0 0.0 0.0 0.0
75.15625 -0.681732902437 0.184937399565 0.00120921729255 -0.0288330462436 0.0 0.0 0.0 0.0
75.171875 -0.681880530125 0.188797385327 0.000925551536459 -0.028848973317 0.0 0.0 0.0 0.0
75.1875 -0.681986237221 0.192660086398 0.000641521897026 -0.0288620124558 0.0 0.0 0.0 0.0
75.203125 -0.682049935557 0.196525050041 0.000357170323872 -0.0288721688846 0.0 0.0 0.0 0.0
75.21875 -0.682071501631 0.200391686605 7.2511425045e-05 -0.02887942332 0.0 0.0 0.0 0.0
75.234375 -0.682050540003 0.20425959154 -0.000212405106967 -0.028883775463 0.0 0.0 0.0 0.0
75.25 -0.681987018324 0.208128313613 -0.00049756816457 -0.0288852254386 0.0 0.0 0.0 0.0
75.265625 -0.681880833301 0.211997451947 -0.000782939511102 -0.0288837609806 0.0 0.0 0.0 0.0
75.28125 -0.681731735311 0.215866431418 -0.0010684850959 -0.0288793893366 0.0 0.0 0.0 0.0
75.296875 -0.681539523917 0.219734734776 -0.00135417776427 -0.0288720924995 0.0 0.0 0.0 0.0
75.3125 -0.681304390877 0.223602117762 -0.00163998770847 -0.0288618845607 0.0 0.0 0.0 0.0
75.328125 -0.681025672054 0.22746780259 -0.00192589133981 -0.028848747719 0.0 0.0 0.0 0.0
75.34375 -0.680703532965 0.231331527461 -0.00221184671256 -0.0288326846879 0.0 0.0 0.0 0.0
75.359375 -0.680337636863 0.235192682996 -0.00249782302422 -0.0288136916271 0.0 0.0 0.0 0.0
75.375 -0.679928183045 0.239050939505 -0.00278379766226 -0.0287917706079 0.0 0.0 0.0 0.0
75.390625 -0.679474754361 0.242905826681 -0.00306973531315 -0.0287669122984 0.0 0.0 0.0 0.0
75.40625 -0.678977256174 0.246756571499 -0.00335559725008 -0.02873911463 0.0 0.0 0.0 0.0
75.421875 -0.678435915394 0.250603050669 -0.00364136621079 -0.0287083926618 0.0 0.0 0.0 0.0
75.4375 -0.677850123698 0.254444601778 -0.00392700129382 -0.0286747260778 0.0 0.0 0.0 0.0
75.453125 -0.677220151715 0.258280777484 -0.0042124701713 -0.0286381324598 0.0 0.0 0.0 0.0
75.46875 -0.676545547605 0.26211103472 -0.0044977505269 -0.0285985897012 0.0 0.0 0.0 0.0
75.484375 -0.675826639869 0.265934813183 -0.0047828009475 -0.0285561303034 0.0 0.0 0.0 0.0
75.5 -0.675062939085 0.269751801542 -0.0050675940656 -0.0285107271226 0.0 0.0 0.0 0.0
75.515625 -0.674254546169 0.273561342279 -0.00535209970531 -0.0284623858806 0.0 0.0 0.0 0.0
75.53125 -0.673401314127 0.277362882193 -0.00563628534153 -0.0284111195851 0.0 0.0 0.0 0.0
75.546875 -0.672503122143 0.281155872001 -0.00592011880199 -0.0283569221668 0.0 0.0 0.0 0.0
75.5625 -0.671560030915 0.284939964788 -0.00620356657635 -0.028299801194 0.0 0.0 0.0 0.0
75.578125 -0.670571717182 0.288714144998 -0.00648660149056 -0.0282397567399 0.0 0.0 0.0 0.0
75.59375 -0.669538035639 0.292478121883 -0.00676919403548 -0.0281767961485 0.0 0.0 0.0 0.0
75.609375 -0.668458425083 0.296230910404 -0.00705130652664 -0.0281109094609 0.0 0.0 0.0 0.0
75.625 -0.66733203572 0.299972629815 -0.00733291257555 -0.0280421171329 0.0 0.0 0.0 0.0
75.640625 -0.666158611946 0.303704192465 -0.00761397777058 -0.0279704223591 0.0 0.0 0.0 0.0
75.65625 -0.664939330561 0.307425515112 -0.00789446994418 -0.0278958083332 0.0 0.0 0.0 0.0
75.671875 -0.663674676343 0.311135837374 -0.00817436140444 -0.0278182902645 0.0 0.0 0.0 0.0
75.6875 -0.662364673805 0.31483456076 -0.00845362124396 -0.0277378846902 0.0 0.0 0.0 0.0
75.703125 -0.661009600406 0.318520905178 -0.00873220949007 -0.0276545781203 0.0 0.0 0.0 0.0
75.71875 -0.659609414759 0.322194775515 -0.00901010836055 -0.0275683904921 0.0 0.0 0.0 0.0
75.734375 -0.658164085004 0.325855235071 -0.00928727221829 -0.0274793175643 0.0 0.0 0.0 0.0
75.75 -0.656673711811 0.329501922685 -0.00956367807347 -0.0273873749911 0.0 0.0 0.0 0.0
75.765625 -0.655138397528 0.333134394542 -0.00983928746941 -0.027292557097 0.0 0.0 0.0 0.0
75.78125 -0.653558286524 0.336752005953 -0.0101140712314 -0.0271948960315 0.0 0.0 0.0 0.0
75.796875 -0.651932999907 0.340354525523 -0.0103880046728 -0.027094368323 0.0 0.0 0.0 0.0
75.8125 -0.650263184029 0.343941201475 -0.0106610495815 -0.026991003448 0.0 0.0 0.0 0.0
75.828125 -0.648548684181 0.347511830437 -0.010933177007 -0.0268848006288 0.0 0.0 0.0 0.0
75.84375 -0.646789326954 0.35106585923 -0.0112043494949 -0.0267757697194 0.0 0.0 0.0 0.0
75.859375 -0.644985472621 0.354602570643 -0.0114745439466 -0.0266639150803 0.0 0.0 0.0 0.0
75.875 -0.643137230989 0.358121808338 -0.0117437220819 -0.0265492547636 0.0 0.0 0.0 0.0
75.890625 -0.641244604401 0.361622990278 -0.012011857526 -0.0264317952742 0.0 0.0 0.0 0.0
75.90625 -0.639307659781 0.36510576178 -0.0122789211897 -0.0263115375221 0.0 0.0 0.0 0.0
75.921875 -0.637326565027 0.368569398881 -0.0125448710782 -0.026188509983 0.0 0.0 0.0 0.0
75.9375 -0.635301551508 0.372013692032 -0.0128096985966 -0.0260627117392 0.0 0.0 0.0 0.0
75.953125 -0.633232668866 0.375438069699 -0.0130733573999 -0.0259341530603 0.0 0.0 0.0 0.0
75.96875 -0.631120117606 0.378842273035 -0.0133358174118 -0.0258028512193 0.0 0.0 0.0 0.0
75.984375 -0.628964057958 0.382225531957 -0.0135970493565 -0.025668816386 0.0 0.0 0.0 0.0
76.0 -0.626764480193 0.385587568942 -0.0138570209881 -0.0255320534425 0.0 0.0 0.0 0.0
76.015625 -0.624521760022 0.388928024572 -0.0141157058281 -0.0253925863185 0.0 0.0 0.0 0.0
76.03125 -0.622235927992 0.39224626687 -0.0143730752622 -0.0252504186901 0.0 0.0 0.0 0.0
76.046875 -0.61990701678 0.395541976152 -0.0146290937715 -0.0251055584327 0.0 0.0 0.0 0.0
76.0625 -0.617535593942 0.398814678331 -0.014883732205 -0.0249580398904 0.0 0.0 0.0 0.0
76.078125 -0.615121677828 0.402063838096 -0.0151369788478 -0.0248078578042 0.0 0.0 0.0 0.0
76.09375 -0.612665177631 0.405289133107 -0.0153887785977 -0.0246550257236 0.0 0.0 0.0 0.0
76.109375 -0.610166423475 0.408489867711 -0.0156391096404 -0.0244995601482 0.0 0.0 0.0 0.0
76.125 -0.607625694339 0.411665839584 -0.0158879474113 -0.0243414871971 0.0 0.0 0.0 0.0
76.140625 -0.605043015618 0.41481643758 -0.0161352634643 -0.0241808054621 0.0 0.0 0.0 0.0
76.15625 -0.602418151422 0.417941334985 -0.016381023659 -0.0240175405922 0.0 0.0 0.0 0.0
76.171875 -0.599751301003 0.421040319471 -0.0166251962025 -0.0238516942215 0.0 0.0 0.0 0.0
76.1875 -0.597042779175 0.424113678869 -0.0168677579664 -0.0236833011952 0.0 0.0 0.0 0.0
76.203125 -0.59429317516 0.427161066876 -0.0171086773764 -0.0235123638239 0.0 0.0 0.0 0.0
76.21875 -0.59150296446 0.4301820011 -0.0173479245789 -0.0233389071957 0.0 0.0 0.0 0.0
76.234375 -0.588672645846 0.433176018441 -0.0175854756427 -0.0231629446895 0.0 0.0 0.0 0.0
76.25 -0.585802412499 0.436142613047 -0.0178212927336 -0.0229844845042 0.0 0.0 0.0 0.0
76.265625 -0.582892903111 0.439081366001 -0.0180553546309 -0.0228035630204 0.0 0.0 0.0 0.0
76.28125 -0.579944359777 0.44199186811 -0.0182876300289 -0.02262018454 0.0 0.0 0.0 0.0
76.296875 -0.576957015139 0.444873699811 -0.0185180964828 -0.0224343710994 0.0 0.0 0.0 0.0
76.3125 -0.573931222234 0.447726654745 -0.0187467236703 -0.0222461350934 0.0 0.0 0.0 0.0
76.328125 -0.57086726892 0.450550292327 -0.0189734853968 -0.0220554942134 0.0 0.0 0.0 0.0
76.34375 -0.567765462782 0.453343999175 -0.0191983465941 -0.0218624913823 0.0 0.0 0.0 0.0
76.359375 -0.564626002204 0.456107441461 -0.0194212824113 -0.021667110599 0.0 0.0 0.0 0.0
76.375 -0.561449505244 0.458840250267 -0.0196422740872 -0.0214693900487 0.0 0.0 0.0 0.0
76.390625 -0.558236363992 0.461542189055 -0.0198612907462 -0.0212693539014 0.0 0.0 0.0 0.0
76.40625 -0.554986715596 0.464212559095 -0.0200782886778 -0.0210670129582 0.0 0.0 0.0 0.0
76.421875 -0.551701208601 0.466851272019 -0.0202932718695 -0.0208623949168 0.0 0.0 0.0 0.0
76.4375 -0.548380133864 0.46945762797 -0.0205061967922 -0.0206555112022 0.0 0.0 0.0 0.0
76.453125 -0.545023824092 0.472031654103 -0.0207170334149 -0.0204463877557 0.0 0.0 0.0 0.0
76.46875 -0.541632844835 0.4745726295 -0.0209257667112 -0.0202350543279 0.0 0.0 0.0 0.0
76.484375 -0.538207513684 0.477080316339 -0.0211323590198 -0.0200215185797 0.0 0.0 0.0 0.0
76.5 -0.534748344689 0.479554588152 -0.0213367957711 -0.0198058107465 0.0 0.0 0.0 0.0
76.515625 -0.531255723132 0.481994821218 -0.0215390539925 -0.0195879423077 0.0 0.0 0.0 0.0
76.53125 -0.52773026795 0.484400795509 -0.0217390942707 -0.0193679624354 0.0 0.0 0.0 0.0
76.546875 -0.524172246672 0.486772102481 -0.0219369048661 -0.0191458618625 0.0 0.0 0.0 0.0
76.5625 -0.52058211787 0.489108312003 -0.0221324573121 -0.0189216789586 0.0 0.0 0.0 0.0
76.578125 -0.51696062232 0.491409392888 -0.0223257289985 -0.0186954466209 0.0 0.0 0.0 0.0
76.59375 -0.513307806555 0.493674660492 -0.0225166929555 -0.0184671738417 0.0 0.0 0.0 0.0
76.609375 -0.509624499413 0.495903844218 -0.0227053221298 -0.0182368901606 0.0 0.0 0.0 0.0
76.625 -0.505911085151 0.498096779211 -0.0228915997736 -0.0180046234205 0.0 0.0 0.0 0.0
76.640625 -0.502168116226 0.500253136423 -0.0230754896128 -0.0177703959385 0.0 0.0 0.0 0.0
76.65625 -0.498395971717 0.502372415497 -0.0232569946546 -0.0175342215039 0.0 0.0 0.0 0.0
76.671875 -0.494595379843 0.504454467309 -0.0234360700344 -0.0172961454463 0.0 0.0 0.0 0.0
76.6875 -0.490766657098 0.506498797005 -0.0236127096222 -0.0170561840565 0.0 0.0 0.0 0.0
76.703125 -0.48691036992 0.508505299213 -0.023786877337 -0.0168143511676 0.0 0.0 0.0 0.0
76.71875 -0.483027070137 0.510473383948 -0.0239585491179 -0.0165706887975 0.0 0.0 0.0 0.0
76.734375 -0.479117176715 0.512403001114 -0.0241277201843 -0.0163252236463 0.0 0.0 0.0 0.0
76.75 -0.475181125904 0.51429364198 -0.0242943636639 -0.0160779578989 0.0 0.0 0.0 0.0
76.765625 -0.471219403677 0.516145261901 -0.0244584439614 -0.0158289537597 0.0 0.0 0.0 0.0
76.78125 -0.467232354643 0.517957457064 -0.0246199550149 -0.0155782184247 0.0 0.0 0.0 0.0
76.796875 -0.463220765751 0.519730592702 -0.0247788779942 -0.0153257785813 0.0 0.0 0.0 0.0
76.8125 -0.459185133893 0.521464167815 -0.0249351848605 -0.015071664457 0.0 0.0 0.0 0.0
76.828125 -0.455126148601 0.523158110817 -0.0250888629569 -0.0148159067014 0.0 0.0 0.0 0.0
76.84375 -0.451044383817 0.524812156581 -0.0252398889642 -0.0145585295461 0.0 0.0 0.0 0.0
76.859375 -0.446940432948 0.526426208887 -0.0253882452966 -0.0142995607874 0.0 0.0 0.0 0.0
76.875 -0.442815093306 0.527999637126 -0.0255339090554 -0.0140390253351 0.0 0.0 0.0 0.0
76.890625 -0.43866905 0.529532468618 -0.0256768631517 -0.0137769515469 0.0 0.0 0.0 0.0
76.90625 -0.434502933833 0.531024244991 -0.0258170871991 -0.0135133748487 0.0 0.0 0.0 0.0
76.921875 -0.430317371922 0.532474794851 -0.025954564927 -0.013248324089 0.0 0.0 0.0 0.0
76.9375 -0.426113110209 0.53388403003 -0.0260892918319 -0.0129818339988 0.0 0.0 0.0 0.0
76.953125 -0.421890733553 0.535251451374 -0.0262212178897 -0.0127139166801 0.0 0.0 0.0 0.0
76.96875 -0.417651069461 0.536577312157 -0.0263503654508 -0.0124446116013 0.0 0.0 0.0 0.0
76.984375 -0.413394699368 0.537860976438 -0.0264766929482 -0.0121739442157 0.0 0.0 0.0 0.0
77.0 -0.409122339683 0.53910242829 -0.0266001908559 -0.0119019639993 0.0 0.0 0.0 0.0
77.015625 -0.404834695505 0.540301575576 -0.0267208338173 -0.0116286791385 0.0 0.0 0.0 0.0
77.03125 -0.400532298254 0.541458027721 -0.0268386252203 -0.0113541276983 0.0 0.0 0.0 0.0
77.046875 -0.396216035255 0.542571652064 -0.0269535365439 -0.0110783421936 0.0 0.0 0.0 0.0
77.0625 -0.391886536061 0.543642357576 -0.0270655603975 -0.0108013558067 0.0 0.0 0.0 0.0
77.078125 -0.387544601058 0.544669918287 -0.0271746747219 -0.0105231874532 0.0 0.0 0.0 0.0
77.09375 -0.383190919606 0.545654425776 -0.0272808698236 -0.0102438778495 0.0 0.0 0.0 0.0
77.109375 -0.378826041058 0.546595163482 -0.0273841273662 -0.00996345605336 0.0 0.0 0.0 0.0
77.125 -0.374451049974 0.547492265236 -0.0274844473729 -0.00968195788424 0.0 0.0 0.0 0.0
77.140625 -0.370066263938 0.548345627315 -0.027581791539 -0.00939941376285 0.0 0.0 0.0 0.0
77.15625 -0.365672690893 0.549155148041 -0.027676171696 -0.00911584723408 0.0 0.0 0.0 0.0
77.171875 -0.36127097095 0.549920508957 -0.0277675743211 -0.00883129739001 0.0 0.0 0.0 0.0
77.1875 -0.356861870556 0.550641669755 -0.027855968189 -0.00854579791389 0.0 0.0 0.0 0.0
77.203125 -0.352446144562 0.551318587724 -0.0279413575808 -0.00825937763883 0.0 0.0 0.0 0.0
77.21875 -0.348024612322 0.551950767533 -0.0280237263947 -0.00797206712864 0.0 0.0 0.0 0.0
77.234375 -0.343597881314 0.552538690883 -0.0281030649849 -0.00768389899959 0.0 0.0 0.0 0.0
77.25 -0.339166780365 0.553081654511 -0.0281793663149 -0.00739492260796 0.0 0.0 0.0 0.0
77.265625 -0.334731985612 0.553579784053 -0.0282526028321 -0.00710514189541 0.0 0.0 0.0 0.0
77.28125 -0.330294398375 0.554033180442 -0.0283227930704 -0.00681461287087 0.0 0.0 0.0 0.0
77.296875 -0.325854656235 0.554441353345 -0.0283898917529 -0.00652335963128 0.0 0.0 0.0 0.0
77.3125 -0.321413632512 0.554804471267 -0.02845393026 -0.00623141674148 0.0 0.0 0.0 0.0
77.328125 -0.316971927371 0.555122423683 -0.0285148745862 -0.00593881939189 0.0 0.0 0.0 0.0
77.34375 -0.312530313862 0.555394894516 -0.0285727192978 -0.00564559368545 0.0 0.0 0.0 0.0
77.359375 -0.308089764074 0.555622196039 -0.0286274624611 -0.00535178216832 0.0 0.0 0.0 0.0
77.375 -0.303650768178 0.555804060233 -0.0286790916289 -0.00505741739914 0.0 0.0 0.0 0.0
77.390625 -0.299214140768 0.555940551365 -0.0287276009948 -0.00476253330876 0.0 0.0 0.0 0.0
77.40625 -0.294781024144 0.556031748242 -0.0287729863212 -0.00446715622877 0.0 0.0 0.0 0.0
77.421875 -0.290351783552 0.556077454224 -0.0288152412134 -0.00417132785156 0.0 0.0 0.0 0.0
77.4375 -0.285927343149 0.556077640538 -0.0288543610049 -0.0038750822868 0.0 0.0 0.0 0.0
77.453125 -0.281508596169 0.556032426521 -0.0288903414095 -0.00357845369401 0.0 0.0 0.0 0.0
77.46875 -0.277096486112 0.555941691129 -0.0289231721722 -0.00328147555843 0.0 0.0 0.0 0.0
77.484375 -0.272691660094 0.555805668664 -0.0289528505469 -0.00298417461131 0.0 0.0 0.0 0.0
77.5 -0.268294848963 0.555624032745 -0.028979371711 -0.00268660074684 0.0 0.0 0.0 0.0
77.515625 -0.263907044716 0.555396915937 -0.0290027407765 -0.00238877357534 0.0 0.0 0.0 0.0
77.53125 -0.259528977897 0.555124217482 -0.0290229423934 -0.00209072650766 0.0 0.0 0.0 0.0
77.546875 -0.255161274655 0.554806012508 -0.0290399669874 -0.00179250936769 0.0 0.0 0.0 0.0
77.5625 -0.250805172799 0.554442367136 -0.0290538331118 -0.00149414265818 0.0 0.0 0.0 0.0
77.578125 -0.246461134091 0.554033241879 -0.0290645198597 -0.00119566772876 0.0 0.0 0.0 0.0
77.59375 -0.24213005906 0.553578597753 -0.0290720325429 -0.000897127527724 0.0 0.0 0.0 0.0
77.609375 -0.237812824257 0.553078569726 -0.0290763649005 -0.000598541257081 0.0 0.0 0.0 0.0
77.625 -0.233510123578 0.55253309916 -0.0290775229583 -0.000299951739036 0.0 0.0 0.0 0.0
77.640625 -0.229222876359 0.551942477021 -0.0290755070711 -1.39378964911e-06 0.0 0.0 0.0 0.0
77.65625 -0.224951817998 0.551306587699 -0.029070305219 0.000297097651709 0.0 0.0 0.0 0.0
77.671875 -0.220697855826 0.550625546945 -0.0290619378581 0.000595480049283 0.0 0.0 0.0 0.0
77.6875 -0.216461793571 0.549899458885 -0.0290503935215 0.000893733909445 0.0 0.0 0.0 0.0
77.703125 -0.212244503282 0.549128417196 -0.0290356617911 0.00119180828022 0.0 0.0 0.0 0.0
77.71875 -0.208046602552 0.548312319953 -0.0290177699569 0.00148968461986 0.0 0.0 0.0 0.0
77.734375 -0.203869036901 0.547451508767 -0.0289966964453 0.00178730367212 0.0 0.0 0.0 0.0
77.75 -0.19971271301 0.54654604692 -0.0289724623088 0.00208465474268 0.0 0.0 0.0 0.0
77.765625 -0.19557839482 0.545595866021 -0.0289450523824 0.00238169391185 0.0 0.0 0.0 0.0
77.78125 -0.191466930115 0.544601157775 -0.028914496733 0.00267838066678 0.0 0.0 0.0 0.0
77.796875 -0.187378910691 0.543562118277 -0.0288807800501 0.00297468643103 0.0 0.0 0.0 0.0
77.8125 -0.183315451884 0.54247861247 -0.028843894393 0.00327057490485 0.0 0.0 0.0 0.0
77.828125 -0.179277123817 0.541351078448 -0.0288038765651 0.00356601480909 0.0 0.0 0.0 0.0
77.84375 -0.175264894279 0.540179503475 -0.0287607077709 0.00386096093623 0.0 0.0 0.0 0.0
77.859375 -0.171279376064 0.538964044836 -0.0287143982823 0.00415539466205 0.0 0.0 0.0 0.0
77.875 -0.167321552667 0.537704564374 -0.0286649628383 0.004449267059 0.0 0.0 0.0 0.0
77.890625 -0.163392146287 0.536401643501 -0.0286124070792 0.00474255145992 0.0 0.0 0.0 0.0
77.90625 -0.159491821764 0.535055215583 -0.0285567192493 0.00503521030234 0.0 0.0 0.0 0.0
77.921875 -0.15562155131 0.533665495462 -0.0284979271015 0.00532720476942 0.0 0.0 0.0 0.0
77.9375 -0.151782061742 0.532232441042 -0.0284360294681 0.00561851475461 0.0 0.0 0.0 0.0
77.953125 -0.147973933437 0.530756607518 -0.0283710359542 0.0059090984887 0.0 0.0 0.0 0.0
77.96875 -0.144198217215 0.529237834589 -0.0283029552131 0.00619892190775 0.0 0.0 0.0 0.0
77.984375 -0.140455559152 0.527676473974 -0.0282317980112 0.00648794353382 0.0 0.0 0.0 0.0
78.0 -0.136746587591 0.526072863648 -0.0281575660159 0.00677613558748 0.0 0.0 0.0 0.0
78.015625 -0.133072083512 0.524426825298 -0.0280802672058 0.00706347162404 0.0 0.0 0.0 0.0
78.03125 -0.129433032943 0.522739041487 -0.0279999278094 0.00734990609083 0.0 0.0 0.0 0.0
78.046875 -0.125829759724 0.521009397593 -0.0279165299893 0.00763541391218 0.0 0.0 0.0 0.0
78.0625 -0.122263287258 0.519238265187 -0.0278301133058 0.00791995322574 0.0 0.0 0.0 0.0
78.078125 -0.118734367468 0.517425889183 -0.0277406688063 0.00820349304087 0.0 0.0 0.0 0.0
78.09375 -0.115243534833 0.515572581904 -0.0276482287995 0.00848599811739 0.0 0.0 0.0 0.0
78.109375 -0.111791775132 0.513678482369 -0.0275527766669 0.00876744273997 0.0 0.0 0.0 0.0
78.125 -0.108379710279 0.51174412641 -0.0274543537752 0.00904778679314 0.0 0.0 0.0 0.0
78.140625 -0.105008022508 0.509769405867 -0.0273529611073 0.00932699378953 0.0 0.0 0.0 0.0
78.15625 -0.101677484983 0.5077547147 -0.0272486096029 0.00960503838516 0.0 0.0 0.0 0.0
78.171875 -0.0983888025117 0.505700563685 -0.0271413102754 0.00988189528589 0.0 0.0 0.0 0.0
78.1875 -0.0951426854971 0.503606874469 -0.0270310850352 0.0101575104486 0.0 0.0 0.0 0.0
78.203125 -0.0919398666773 0.501474133494 -0.0269179403701 0.0104318733678 0.0 0.0 0.0 0.0
78.21875 -0.0887810620607 0.499302477552 -0.0268019052461 0.0107049328736 0.0 0.0 0.0 0.0
78.234375 -0.0856668469549 0.497092512874 -0.0266829834252 0.0109766692958 0.0 0.0 0.0 0.0
78.25 -0.0825979881673 0.494844097554 -0.0265611873792 0.0112470580527 0.0 0.0 0.0 0.0
78.265625 -0.0795751731906 0.492557939368 -0.0264365477272 0.0115160489819 0.0 0.0 0.0 0.0
78.28125 -0.0765989544674 0.490234060203 -0.0263090663039 0.0117836130114 0.0 0.0 0.0 0.0
78.296875 -0.0736699600386 0.487873070951 -0.026178768231 0.0120497312482 0.0 0.0 0.0 0.0
78.3125 -0.0707889066658 0.485475009809 -0.0260456645886 0.0123143702776 0.0 0.0 0.0 0.0
78.328125 -0.0679563704342 0.483040449773 -0.0259097906892 0.0125774911384 0.0 0.0 0.0 0.0
78.34375 -0.0651730176575 0.480569373042 -0.025771134875 0.0128390663684 0.0 0.0 0.0 0.0
78.359375 -0.0624394552939 0.478062439791 -0.0256297412527 0.013099070039 0.0 0.0 0.0 0.0
78.375 -0.0597563276765 0.475519813077 -0.0254856169117 0.013357466689 0.0 0.0 0.0 0.0
78.390625 -0.0571241685552 0.472941984329 -0.0253387770299 0.0136142333529 0.0 0.0 0.0 0.0
78.40625 -0.0545435654269 0.470329035272 -0.0251892534606 0.0138693300506 0.0 0.0 0.0 0.0
78.421875 -0.0520150881878 0.467681648681 -0.02503705102 0.0141227282755 0.0 0.0 0.0 0.0
