!SWISSto12 MCK measurement data
!name=Sample_Concrete_19052022_1
!thickness[mm]=18.000
# GHz S RI R 50.0 
!freq ReS11 ImS11 ReS21 ImS21 ReS12 ImS12 ReS22 ImS22
75.0 -0.170140476423 0.105949015895 -0.0697554786331 0.0966072147563 0.0 0.0 0.0 0.0
75.015625 -0.169823830214 0.106478735184 -0.0685145136542 0.0973700564054 0.0 0.0 0.0 0.0
75.03125 -0.169491883483 0.107018784981 -0.0672649394579 0.0981168371155 0.0 0.0 0.0 0.0
75.046875 -0.169144103357 0.107568514529 -0.0660069676428 0.0988474868357 0.0 0.0 0.0 0.0
75.0625 -0.168777865976 0.108129271007 -0.0647407962768 0.0995619468805 0.0 0.0 0.0 0.0
75.078125 -0.168395071274 0.108702260866 -0.0634666622164 0.100260104778 0.0 0.0 0.0 0.0
75.09375 -0.167996328416 0.109287153112 -0.0621847775304 0.100941899191 0.0 0.0 0.0 0.0
75.109375 -0.167581842481 0.109883435884 -0.0608953403773 0.101607279569 0.0 0.0 0.0 0.0
75.125 -0.167151601149 0.110491090425 -0.0595985764358 0.10225612067 0.0 0.0 0.0 0.0
75.140625 -0.166705487191 0.11110977016 -0.0582946859492 0.102888346723 0.0 0.0 0.0 0.0
75.15625 -0.166243595687 0.111739361502 -0.0569839762744 0.103503914298 0.0 0.0 0.0 0.0
75.171875 -0.165765888776 0.112379628118 -0.0556665782541 0.1041027927 0.0 0.0 0.0 0.0
75.1875 -0.165272209264 0.113030426052 -0.0543427093651 0.104684845914 0.0 0.0 0.0 0.0
75.203125 -0.16476267135 0.113691712928 -0.0530126491309 0.105250056653 0.0 0.0 0.0 0.0
75.21875 -0.16423718642 0.114363192654 -0.0516766241115 0.105798380619 0.0 0.0 0.0 0.0
75.234375 -0.163695723559 0.115044751206 -0.0503347989795 0.106329720104 0.0 0.0 0.0 0.0
75.25 -0.163138244489 0.115736202106 -0.0489873766829 0.10684401822 0.0 0.0 0.0 0.0
75.265625 -0.162564683494 0.11643746745 -0.0476346558094 0.107341318984 0.0 0.0 0.0 0.0
75.28125 -0.16197502761 0.11714827561 -0.0462768387442 0.107821459689 0.0 0.0 0.0 0.0
75.296875 -0.161369274355 0.117868524229 -0.0449141307 0.108284476507 0.0 0.0 0.0 0.0
75.3125 -0.160747426321 0.118598097424 -0.0435467334093 0.108730324193 0.0 0.0 0.0 0.0
75.328125 -0.160109431894 0.119336689038 -0.0421749123528 0.109158907459 0.0 0.0 0.0 0.0
75.34375 -0.159455240167 0.120084172323 -0.0407988749621 0.109570241113 0.0 0.0 0.0 0.0
75.359375 -0.158784915826 0.120840406651 -0.0394188382514 0.109964283177 0.0 0.0 0.0 0.0
75.375 -0.158098392714 0.121605201791 -0.038035049051 0.110340984285 0.0 0.0 0.0 0.0
75.390625 -0.157395686918 0.12237832794 -0.0366476826172 0.110700377186 0.0 0.0 0.0 0.0
75.40625 -0.156676763993 0.12315958179 -0.0352570282692 0.111042350541 0.0 0.0 0.0 0.0
75.421875 -0.155941726079 0.123948900529 -0.033863275475 0.111366991419 0.0 0.0 0.0 0.0
75.4375 -0.155190439867 0.12474595059 -0.0324666256969 0.111674169956 0.0 0.0 0.0 0.0
75.453125 -0.154422977742 0.125550593693 -0.0310673769299 0.11196397169 0.0 0.0 0.0 0.0
75.46875 -0.153639265993 0.126362590544 -0.029665643463 0.112236298138 0.0 0.0 0.0 0.0
75.484375 -0.152839432402 0.127181797544 -0.028261779562 0.112491225999 0.0 0.0 0.0 0.0
75.5 -0.152023377134 0.128007831192 -0.0268558711454 0.112728668273 0.0 0.0 0.0 0.0
75.515625 -0.151191142771 0.128840544811 -0.0254482334575 0.112948692326 0.0 0.0 0.0 0.0
75.53125 -0.15034272995 0.129679669981 -0.0240390500826 0.113151217989 0.0 0.0 0.0 0.0
75.546875 -0.149478165787 0.130524907303 -0.0226285781341 0.113336359552 0.0 0.0 0.0 0.0
75.5625 -0.1485974698 0.13137596693 -0.0212169917692 0.113503991901 0.0 0.0 0.0 0.0
75.578125 -0.147700631459 0.132232495337 -0.0198045557321 0.113654207798 0.0 0.0 0.0 0.0
75.59375 -0.146787543049 0.133094118643 -0.0183914571194 0.113787039504 0.0 0.0 0.0 0.0
75.609375 -0.145857879855 0.133960185387 -0.0169779120937 0.113902413646 0.0 0.0 0.0 0.0
75.625 -0.144910740095 0.134830604233 -0.015564172701 0.114000383018 0.0 0.0 0.0 0.0
75.640625 -0.143945802544 0.13570660421 -0.014150445915 0.114081035404 0.0 0.0 0.0 0.0
75.65625 -0.142963883848 0.136588358289 -0.0127369330999 0.1141443085 0.0 0.0 0.0 0.0
75.671875 -0.141965556271 0.137475579721 -0.0113238769305 0.114190214617 0.0 0.0 0.0 0.0
75.6875 -0.140951076681 0.138368038408 -0.00991148069726 0.114218849347 0.0 0.0 0.0 0.0
75.703125 -0.139920559032 0.139265314923 -0.00849995133393 0.114230208672 0.0 0.0 0.0 0.0
75.71875 -0.138874162641 0.140167165855 -0.00708949973748 0.114224341242 0.0 0.0 0.0 0.0
75.734375 -0.137811938428 0.141073336289 -0.00568037827341 0.114201245781 0.0 0.0 0.0 0.0
75.75 -0.136734042695 0.141983531386 -0.00427274975982 0.114160954269 0.0 0.0 0.0 0.0
75.765625 -0.13564049265 0.142897504507 -0.00286686900765 0.114103546762 0.0 0.0 0.0 0.0
75.78125 -0.134531451305 0.143815050998 -0.00146291084928 0.114029033778 0.0 0.0 0.0 0.0
75.796875 -0.133406958117 0.144735878015 -6.11115709146e-05 0.113937451851 0.0 0.0 0.0 0.0
75.8125 -0.132267203866 0.145659762618 0.00133832443306 0.113828916094 0.0 0.0 0.0 0.0
75.828125 -0.131112194749 0.146586420697 0.00273519348029 0.113703393922 0.0 0.0 0.0 0.0
75.84375 -0.129942019309 0.147515641679 0.00412929249682 0.113560955244 0.0 0.0 0.0 0.0
75.859375 -0.128756877931 0.148447149203 0.00552040522209 0.113401672988 0.0 0.0 0.0 0.0
75.875 -0.127556848376 0.149380751274 0.00690833098637 0.113225597279 0.0 0.0 0.0 0.0
75.890625 -0.126342061522 0.150316100919 0.00829284159243 0.113032807632 0.0 0.0 0.0 0.0
75.90625 -0.125112531703 0.151253039872 0.00967376265759 0.112823282941 0.0 0.0 0.0 0.0
75.921875 -0.123868507514 0.152191246852 0.0110508863395 0.112597156306 0.0 0.0 0.0 0.0
75.9375 -0.122610073802 0.153130515744 0.0124240012057 0.112354489273 0.0 0.0 0.0 0.0
75.953125 -0.12133738661 0.154070588141 0.0137928938033 0.112095321794 0.0 0.0 0.0 0.0
75.96875 -0.120050548604 0.155011227333 0.0151574018645 0.111819740115 0.0 0.0 0.0 0.0
75.984375 -0.118749761813 0.155952180602 0.0165172722272 0.111527819761 0.0 0.0 0.0 0.0
76.0 -0.117435136716 0.156893058074 0.0178723570044 0.111219624742 0.0 0.0 0.0 0.0
76.015625 -0.116106808388 0.15783380907 0.0192224202174 0.110895234486 0.0 0.0 0.0 0.0
76.03125 -0.114764941779 0.15877399227 0.0205673055678 0.11055474338 0.0 0.0 0.0 0.0
76.046875 -0.113409671247 0.159713412497 0.0219067806935 0.110198161136 0.0 0.0 0.0 0.0
76.0625 -0.112041184641 0.160651843776 0.0232406666353 0.10982569188 0.0 0.0 0.0 0.0
76.078125 -0.110659654656 0.161588975486 0.0245687867773 0.109437314848 0.0 0.0 0.0 0.0
76.09375 -0.10926511054 0.162524448904 0.0258909366055 0.109033168815 0.0 0.0 0.0 0.0
76.109375 -0.107857849561 0.163458044802 0.0272069384866 0.108613364289 0.0 0.0 0.0 0.0
76.125 -0.106437898158 0.16438939957 0.0285165776894 0.108177922264 0.0 0.0 0.0 0.0
76.140625 -0.105005292177 0.1653182783 0.0298197054838 0.107727001665 0.0 0.0 0.0 0.0
76.15625 -0.103560057023 0.166244305316 0.0311161005765 0.107260656261 0.0 0.0 0.0 0.0
76.171875 -0.102101958869 0.167167396647 0.0324055980863 0.106779029224 0.0 0.0 0.0 0.0
76.1875 -0.100631271616 0.168087908368 0.0336880428254 0.1062821859 0.0 0.0 0.0 0.0
76.203125 -0.0991484141575 0.169005713488 0.0349632024462 0.105770243867 0.0 0.0 0.0 0.0
76.21875 -0.097653894315 0.169920675442 0.0362309591757 0.105243286801 0.0 0.0 0.0 0.0
76.234375 -0.096148061376 0.170832397006 0.0374910503688 0.104701475548 0.0 0.0 0.0 0.0
76.25 -0.0946311930737 0.171740565134 0.0387434004305 0.1041448311 0.0 0.0 0.0 0.0
76.265625 -0.0931035957036 0.172644891892 0.0399877776762 0.103573509478 0.0 0.0 0.0 0.0
76.28125 -0.0915655673041 0.173545159078 0.0412240183974 0.102987672084 0.0 0.0 0.0 0.0
76.296875 -0.0900173803733 0.174441104141 0.0424519571471 0.102387352419 0.0 0.0 0.0 0.0
76.3125 -0.0884591791348 0.175332616822 0.0436714238177 0.101772692954 0.0 0.0 0.0 0.0
76.328125 -0.0868912211594 0.176219202085 0.0448822413762 0.101143815903 0.0 0.0 0.0 0.0
76.34375 -0.0853136931221 0.177100800671 0.0460842715728 0.100500855737 0.0 0.0 0.0 0.0
76.359375 -0.0837270050229 0.177976946653 0.0472773310835 0.0998439162358 0.0 0.0 0.0 0.0
76.375 -0.0821313381743 0.178847445069 0.0484612613308 0.0991731194853 0.0 0.0 0.0 0.0
76.390625 -0.0805269593079 0.179712096862 0.0496358965861 0.0984886208581 0.0 0.0 0.0 0.0
76.40625 -0.078914191415 0.180570503224 0.0508010622755 0.0977904749635 0.0 0.0 0.0 0.0
76.421875 -0.0772933190859 0.181422559092 0.0519566683905 0.0970788851106 0.0 0.0 0.0 0.0
76.4375 -0.0756646191506 0.182267941032 0.0531024971306 0.0963539330351 0.0 0.0 0.0 0.0
76.453125 -0.0740283955781 0.183106447015 0.0542383970804 0.0956157787149 0.0 0.0 0.0 0.0
76.46875 -0.0723849603576 0.183937746725 0.0553642641683 0.0948645579135 0.0 0.0 0.0 0.0
76.484375 -0.0707346437403 0.184761612301 0.0564798899148 0.094100385205 0.0 0.0 0.0 0.0
76.5 -0.0690776360414 0.185577883731 0.0575851731561 0.0933233991807 0.0 0.0 0.0 0.0
76.515625 -0.0674143517523 0.186386236871 0.05867995787 0.0925337167399 0.0 0.0 0.0 0.0
76.53125 -0.0657451223072 0.187186488649 0.059764079377 0.0917315492938 0.0 0.0 0.0 0.0
76.546875 -0.0640701622697 0.187978349344 0.0608374036861 0.0909169781356 0.0 0.0 0.0 0.0
76.5625 -0.0623900013098 0.188761528025 0.0618998184639 0.0900901577588 0.0 0.0 0.0 0.0
76.578125 -0.0607048032332 0.189535873695 0.0629511642356 0.0892512483885 0.0 0.0 0.0 0.0
76.59375 -0.0590149020348 0.190301052508 0.0639912996591 0.0884003720919 0.0 0.0 0.0 0.0
76.609375 -0.0573207151655 0.191056880547 0.0650201042502 0.0875376677234 0.0 0.0 0.0 0.0
76.625 -0.0556225630153 0.191803013294 0.0660374243472 0.0866633013786 0.0 0.0 0.0 0.0
76.640625 -0.053920755113 0.192539419303 0.0670431581324 0.0857774336662 0.0 0.0 0.0 0.0
76.65625 -0.0522156497666 0.1932656325 0.068037170599 0.0848801924772 0.0 0.0 0.0 0.0
76.671875 -0.0505076103852 0.193981564277 0.0690193203634 0.0839717443761 0.0 0.0 0.0 0.0
76.6875 -0.0487969939291 0.194686867902 0.0699895228103 0.083052243631 0.0 0.0 0.0 0.0
76.703125 -0.0470840478693 0.195381372603 0.070947610149 0.0821218229103 0.0 0.0 0.0 0.0
76.71875 -0.0453692235079 0.196064687183 0.0718934688365 0.0811806350494 0.0 0.0 0.0 0.0
76.734375 -0.0436527855442 0.196736749932 0.0728270137433 0.0802288739631 0.0 0.0 0.0 0.0
76.75 -0.0419350351948 0.197397136763 0.0737481038846 0.0792666585571 0.0 0.0 0.0 0.0
76.765625 -0.0402161121279 0.198045760349 0.0746566103688 0.0782941646429 0.0 0.0 0.0 0.0
76.78125 -0.0384963772504 0.198682515734 0.0755524763485 0.0773115686613 0.0 0.0 0.0 0.0
76.796875 -0.0367762292751 0.199307324193 0.0764355382164 0.076318987155 0.0 0.0 0.0 0.0
76.8125 -0.0350559940069 0.199920289849 0.07730570722 0.0753166336286 0.0 0.0 0.0 0.0
76.828125 -0.0333362783577 0.200521071582 0.0781628871073 0.074304631023 0.0 0.0 0.0 0.0
76.84375 -0.0316173560547 0.201109557755 0.079006915471 0.0732831396045 0.0 0.0 0.0 0.0
76.859375 -0.0298995587499 0.201685611732 0.0798378027386 0.0722523815194 0.0 0.0 0.0 0.0
76.875 -0.0281836413376 0.202248728992 0.0806553356909 0.0712124398619 0.0 0.0 0.0 0.0
76.890625 -0.0264699162258 0.202798847268 0.0814594877122 0.0701635478757 0.0 0.0 0.0 0.0
76.90625 -0.0247588048286 0.203335852177 0.0822501153189 0.0691058243871 0.0 0.0 0.0 0.0
76.921875 -0.023050828049 0.203859469347 0.0830271523913 0.0680394830442 0.0 0.0 0.0 0.0
76.9375 -0.0213463676171 0.204369542305 0.0837905090212 0.066964696387 0.0 0.0 0.0 0.0
76.953125 -0.0196459909593 0.204865745495 0.084540082265 0.0658815807594 0.0 0.0 0.0 0.0
76.96875 -0.0179499641213 0.205348224424 0.0852758003684 0.0647903679831 0.0 0.0 0.0 0.0
76.984375 -0.0162588583531 0.205816467704 0.0859975695359 0.0636912077488 0.0 0.0 0.0 0.0
77.0 -0.0145730815116 0.206270465072 0.0867052927788 0.0625842569166 0.0 0.0 0.0 0.0
77.015625 -0.0128930392889 0.206710099978 0.087398908697 0.0614697067519 0.0 0.0 0.0 0.0
77.03125 -0.0112192198959 0.207135098439 0.0880783393702 0.0603477350653 0.0 0.0 0.0 0.0
77.046875 -0.0095521328382 0.207545353715 0.0887434896059 0.0592185074118 0.0 0.0 0.0 0.0
77.0625 -0.00789218016795 0.20794063537 0.0893943051212 0.058082216572 0.0 0.0 0.0 0.0
77.078125 -0.00623983389669 0.208320807385 0.0900306827076 0.0569390055244 0.0 0.0 0.0 0.0
77.09375 -0.00459538501731 0.208685951386 0.0906526025021 0.0557891080161 0.0 0.0 0.0 0.0
77.109375 -0.00295961701068 0.209035478798 0.0912599654542 0.0546326684927 0.0 0.0 0.0 0.0
77.125 -0.0013328123367 0.209369438894 0.0918526695145 0.0534698398382 0.0 0.0 0.0 0.0
77.140625 0.000284605104613 0.209687698409 0.0924307266475 0.0523008617313 0.0 0.0 0.0 0.0
77.15625 0.00189211999657 0.209990175637 0.0929940191349 0.0511258764738 0.0 0.0 0.0 0.0
77.171875 0.00348923409522 0.210276542015 0.0935425324405 0.0499450846969 0.0 0.0 0.0 0.0
77.1875 0.005075554091 0.210546749099 0.094076165816 0.0487586550305 0.0 0.0 0.0 0.0
77.203125 0.00665065474025 0.210800776062 0.0945948919958 0.0475667712685 0.0 0.0 0.0 0.0
77.21875 0.00821386775875 0.211038244655 0.0950986394236 0.0463696054879 0.0 0.0 0.0 0.0
77.234375 0.00976495395382 0.211259253844 0.0955873876748 0.0451673895992 0.0 0.0 0.0 0.0
77.25 0.0113032537051 0.211463412215 0.096061065636 0.043960251755 0.0 0.0 0.0 0.0
77.265625 0.0128284883472 0.211650803071 0.0965196241943 0.0427483856277 0.0 0.0 0.0 0.0
77.28125 0.0143401135707 0.211821341027 0.0969630553006 0.0415320133162 0.0 0.0 0.0 0.0
77.296875 0.0158376420321 0.211974638622 0.097391243909 0.0403112601527 0.0 0.0 0.0 0.0
77.3125 0.01732064544 0.212110845378 0.0978042345966 0.0390863535964 0.0 0.0 0.0 0.0
77.328125 0.0187887174272 0.212229690711 0.0982019452073 0.0378574705477 0.0 0.0 0.0 0.0
77.34375 0.0202413454332 0.212331079826 0.0985843677711 0.0366247948733 0.0 0.0 0.0 0.0
77.359375 0.0216781379759 0.212415028373 0.0989514493081 0.0353885037389 0.0 0.0 0.0 0.0
77.375 0.0230986648665 0.212481464235 0.0993031329706 0.0341487920991 0.0 0.0 0.0 0.0
77.390625 0.0245023330871 0.212530171409 0.0996394619698 0.0329058554296 0.0 0.0 0.0 0.0
77.40625 0.025888851884 0.212561353049 0.0999603438401 0.0316598641231 0.0 0.0 0.0 0.0
77.421875 0.0272576125473 0.212574708539 0.100265804927 0.0304110020688 0.0 0.0 0.0 0.0
77.4375 0.0286081839295 0.212570251716 0.100555773439 0.0291594653992 0.0 0.0 0.0 0.0
77.453125 0.0299399942908 0.212548019558 0.100830256576 0.0279054359124 0.0 0.0 0.0 0.0
77.46875 0.0312525735627 0.212507754882 0.101089259349 0.026649109352 0.0 0.0 0.0 0.0
77.484375 0.0325456243064 0.2124497973 0.101332744789 0.0253906692512 0.0 0.0 0.0 0.0
77.5 0.0338183242399 0.212373496265 0.101560658517 0.0241302831324 0.0 0.0 0.0 0.0
77.515625 0.0350705471738 0.212279172197 0.101773056199 0.0228681592875 0.0 0.0 0.0 0.0
77.53125 0.0363016577371 0.212166655395 0.101969905798 0.0216044887826 0.0 0.0 0.0 0.0
77.546875 0.0375113101053 0.212035948119 0.102151180439 0.0203394501837 0.0 0.0 0.0 0.0
77.5625 0.0386990077325 0.211887009659 0.102316896827 0.0190732484414 0.0 0.0 0.0 0.0
77.578125 0.0398641455946 0.211719680158 0.102467058929 0.0178060442055 0.0 0.0 0.0 0.0
77.59375 0.0410064410056 0.211533960823 0.102601664139 0.0165380439356 0.0 0.0 0.0 0.0
77.609375 0.0421253857957 0.21132987437 0.102720715775 0.015269435214 0.0 0.0 0.0 0.0
77.625 0.0432204669638 0.211107256994 0.102824199805 0.0140003800997 0.0 0.0 0.0 0.0
77.640625 0.0442913022594 0.210866285176 0.102912165074 0.0127310978166 0.0 0.0 0.0 0.0
77.65625 0.045337402598 0.210606871969 0.102984601344 0.01146175137 0.0 0.0 0.0 0.0
77.671875 0.0463582983155 0.210329004039 0.103041518281 0.0101925453863 0.0 0.0 0.0 0.0
77.6875 0.0473535850427 0.210032804015 0.103082931892 0.00892364649191 0.0 0.0 0.0 0.0
77.703125 0.048322705512 0.209717949313 0.103108834956 0.00765524331645 0.0 0.0 0.0 0.0
77.71875 0.0492652671008 0.209384691702 0.103119290799 0.0063875256221 0.0 0.0 0.0 0.0
77.734375 0.0501808625954 0.209032927294 0.103114296629 0.00512068493693 0.0 0.0 0.0 0.0
77.75 0.0510689861669 0.208662848115 0.103093853272 0.00385488520037 0.0 0.0 0.0 0.0
77.765625 0.0519291804798 0.208274204014 0.103058052162 0.00259033730901 0.0 0.0 0.0 0.0
77.78125 0.0527610977193 0.20786716025 0.103006852726 0.00132720718003 0.0 0.0 0.0 0.0
77.796875 0.0535642156522 0.207441615877 0.102940306308 6.56751510832e-05 0.0 0.0 0.0 0.0
77.8125 0.0543381734151 0.206997605412 0.102858466297 -0.00119406588539 0.0 0.0 0.0 0.0
77.828125 0.0550825787867 0.206535225566 0.102761342952 -0.00245184540486 0.0 0.0 0.0 0.0
77.84375 0.0557969000855 0.206054446784 0.102648971777 -0.00370746316626 0.0 0.0 0.0 0.0
77.859375 0.0564808806804 0.205555342478 0.102521389379 -0.00496075848605 0.0 0.0 0.0 0.0
77.875 0.0571339226652 0.205037769985 0.102378635108 -0.00621154387851 0.0 0.0 0.0 0.0
77.890625 0.057755827595 0.204501920693 0.10222079561 -0.00745963575721 0.0 0.0 0.0 0.0
77.90625 0.0583461315049 0.203947823271 0.102047823005 -0.00870486738901 0.0 0.0 0.0 0.0
77.921875 0.0589044406122 0.203375494464 0.10185985372 -0.00994704876788 0.0 0.0 0.0 0.0
77.9375 0.0594303642225 0.202784909379 0.101656889811 -0.0111860048354 0.0 0.0 0.0 0.0
77.953125 0.0599236069961 0.202176312713 0.101438981305 -0.012421553463 0.0 0.0 0.0 0.0
77.96875 0.0603836734633 0.201549508272 0.101206201122 -0.0136535280542 0.0 0.0 0.0 0.0
77.984375 0.0608102989585 0.200904722671 0.100958560469 -0.0148817312569 0.0 0.0 0.0 0.0
78.0 0.0612031587491 0.200241918031 0.100696179103 -0.0161060148336 0.0 0.0 0.0 0.0
78.015625 0.0615619147162 0.199561236971 0.100419028355 -0.0173261759642 0.0 0.0 0.0 0.0
78.03125 0.0618862581432 0.198862940264 0.100127256216 -0.018542056905 0.0 0.0 0.0 0.0
78.046875 0.0621757741082 0.198146874236 0.0998208793815 -0.0197534822799 0.0 0.0 0.0 0.0
78.0625 0.0624301791123 0.197413236472 0.0995000087561 -0.0209602722404 0.0 0.0 0.0 0.0
78.078125 0.0626491079905 0.196662162219 0.0991646400785 -0.0221622637647 0.0 0.0 0.0 0.0
78.09375 0.0628322267563 0.195893713976 0.0988148883359 -0.023359279076 0.0 0.0 0.0 0.0
78.109375 0.0629792825938 0.195108126171 0.0984508004805 -0.0245511487694 0.0 0.0 0.0 0.0
78.125 0.0630899235716 0.194305506412 0.0980724702767 -0.0257377080269 0.0 0.0 0.0 0.0
78.140625 0.0631637262076 0.193485829765 0.0976799927065 -0.026918795672 0.0 0.0 0.0 0.0
78.15625 0.063200378208 0.192649233498 0.097273360302 -0.028094211968 0.0 0.0 0.0 0.0
78.171875 0.063199658165 0.191795949608 0.096852754495 -0.0292638330111 0.0 0.0 0.0 0.0
78.1875 0.0631612806749 0.190926004208 0.0964181722311 -0.0304274598499 0.0 0.0 0.0 0.0
78.203125 0.0630849947788 0.190039513819 0.0959697550059 -0.0315849599738 0.0 0.0 0.0 0.0
78.21875 0.0629704202156 0.189136691578 0.0955075504853 -0.0327361370289 0.0 0.0 0.0 0.0
78.234375 0.062817297792 0.188217579221 0.0950316624378 -0.0338808449129 0.0 0.0 0.0 0.0
78.25 0.0626253569047 0.187282322153 0.0945421553099 -0.0350189209495 0.0 0.0 0.0 0.0
78.265625 0.0623943853386 0.186331120941 0.094039181784 -0.0361502248477 0.0 0.0 0.0 0.0
78.28125 0.0621242311607 0.185364069909 0.0935227769667 -0.0372745589629 0.0 0.0 0.0 0.0
78.296875 0.0618146114296 0.18438140316 0.0929930322404 -0.0383917711954 0.0 0.0 0.0 0.0
78.3125 0.0614652629195 0.183383194785 0.0924500745737 -0.039501743275 0.0 0.0 0.0 0.0
78.328125 0.061076013169 0.182369650405 0.0918939918601 -0.0406042839105 0.0 0.0 0.0 0.0
78.34375 0.0606465474255 0.181340648755 0.0913248762251 -0.0416992544867 0.0 0.0 0.0 0.0
78.359375 0.0601768834583 0.180296671468 0.0907428052045 -0.0427864988354 0.0 0.0 0.0 0.0
78.375 0.0596666649887 0.179237726933 0.0901479081604 -0.0438658592387 0.0 0.0 0.0 0.0
78.390625 0.0591158159964 0.178164017994 0.0895402892741 -0.0449371856857 0.0 0.0 0.0 0.0
78.40625 0.0585241068248 0.177075752886 0.0889200560018 -0.0460003265552 0.0 0.0 0.0 0.0
78.421875 0.0578913636927 0.175972968461 0.0882873323468 -0.0470551508258 0.0 0.0 0.0 0.0
78.4375 0.0572175217897 0.174856006121 0.0876422110906 -0.0481014968211 0.0 0.0 0.0 0.0
78.453125 0.0565023286326 0.173724835863 0.0869848082759 -0.0491392114147 0.0 0.0 0.0 0.0
78.46875 0.0557457390401 0.172579778454 0.0863152253256 -0.0501681719119 0.0 0.0 0.0 0.0
78.484375 0.0549476236461 0.171421001693 0.0856336172421 -0.0511882106643 0.0 0.0 0.0 0.0
78.5 0.0541078520018 0.170248683032 0.0849400541121 -0.0521992226464 0.0 0.0 0.0 0.0
