!SWISSto12 MCK measurement data
!name=Sample_wheel_rubber
!thickness[mm]=12.500
# GHz S RI R 50.0 
!freq ReS11 ImS11 ReS21 ImS21 ReS12 ImS12 ReS22 ImS22
75.0 0.0109423850494 0.430208466312 0.000167042495573 -0.029614828629 0.0 0.0 0.0 0.0
75.015625 0.0123595731628 0.429918870731 -0.000132344502053 -0.0296248386934 0.0 0.0 0.0 0.0
75.03125 0.0137815163256 0.429643221725 -0.000432091542747 -0.0296316266898 0.0 0.0 0.0 0.0
75.046875 0.015209035072 0.429380700916 -0.000732166830026 -0.0296352103621 0.0 0.0 0.0 0.0
75.0625 0.0166447275411 0.42913378811 -0.00103253855938 -0.0296355816893 0.0 0.0 0.0 0.0
75.078125 0.0180858366479 0.428903361243 -0.0013331629338 -0.0296327334318 0.0 0.0 0.0 0.0
75.09375 0.0195313924154 0.42868896018 -0.00163401573732 -0.0296266579969 0.0 0.0 0.0 0.0
75.109375 0.0209811503243 0.428489824035 -0.00193505767242 -0.0296173617622 0.0 0.0 0.0 0.0
75.125 0.0224350064189 0.428305852516 -0.00223624836059 -0.0296048321598 0.0 0.0 0.0 0.0
75.140625 0.0238928416285 0.428136668656 -0.00253754364806 -0.0295890640433 0.0 0.0 0.0 0.0
75.15625 0.0253546072804 0.427982179828 -0.0028389274581 -0.0295700568521 0.0 0.0 0.0 0.0
75.171875 0.026820119074 0.427841952744 -0.00314034445559 -0.0295478138072 0.0 0.0 0.0 0.0
75.1875 0.028289447236 0.427716015144 -0.00344177413566 -0.029522328721 0.0 0.0 0.0 0.0
75.203125 0.029762416394 0.427604131653 -0.0037431652267 -0.0294936056451 0.0 0.0 0.0 0.0
75.21875 0.0312390166144 0.42750601363 -0.00404450412949 -0.0294616313393 0.0 0.0 0.0 0.0
75.234375 0.032719016491 0.427421510954 -0.00434572869259 -0.0294264189574 0.0 0.0 0.0 0.0
75.25 0.0342025819024 0.427350448394 -0.00464681731143 -0.0293879569655 0.0 0.0 0.0 0.0
75.265625 0.0356894182592 0.427292643024 -0.00494772666785 -0.0293462504842 0.0 0.0 0.0 0.0
75.28125 0.0371796314802 0.427247931691 -0.00524842536844 -0.0293013032402 0.0 0.0 0.0 0.0
75.296875 0.038673016173 0.427215897458 -0.00554887048865 -0.0292531213971 0.0 0.0 0.0 0.0
75.3125 0.0401696399224 0.427196647282 -0.00584902844015 -0.0292016966495 0.0 0.0 0.0 0.0
75.328125 0.0416692377397 0.427189802483 -0.00614886408805 -0.0291470346155 0.0 0.0 0.0 0.0
75.34375 0.0431719495849 0.42719506797 -0.00644834249376 -0.0290891412844 0.0 0.0 0.0 0.0
75.359375 0.0446775902317 0.427212372855 -0.0067474182229 -0.0290280120598 0.0 0.0 0.0 0.0
75.375 0.0461859481785 0.427241417373 -0.00704606951319 -0.0289636575255 0.0 0.0 0.0 0.0
75.390625 0.0476972268326 0.427282050536 -0.0073442431971 -0.0288960759014 0.0 0.0 0.0 0.0
75.40625 0.0492112000203 0.427333909119 -0.0076419216838 -0.0288252773686 0.0 0.0 0.0 0.0
75.421875 0.0507277264888 0.427396910117 -0.00793904593785 -0.0287512697085 0.0 0.0 0.0 0.0
75.4375 0.0522469137203 0.427470658845 -0.00823559350126 -0.0286740448029 0.0 0.0 0.0 0.0
75.453125 0.0537685488755 0.427555015253 -0.00853152423508 -0.028593620038 0.0 0.0 0.0 0.0
75.46875 0.0552927369571 0.427649636163 -0.00882680035731 -0.0285099922565 0.0 0.0 0.0 0.0
75.484375 0.0568192107845 0.42775446651 -0.00912138425018 -0.028423186184 0.0 0.0 0.0 0.0
75.5 0.0583479094414 0.427868854835 -0.00941525145005 -0.028333188408 0.0 0.0 0.0 0.0
75.515625 0.0598789147879 0.427992824546 -0.00970834180429 -0.0282400182829 0.0 0.0 0.0 0.0
75.53125 0.0614121173731 0.428125876179 -0.010000644483 -0.0281436792728 0.0 0.0 0.0 0.0
75.546875 0.0629474415683 0.428267794674 -0.0102921052675 -0.0280441831482 0.0 0.0 0.0 0.0
75.5625 0.0644848867951 0.428418115172 -0.0105826985797 -0.0279415391337 0.0 0.0 0.0 0.0
75.578125 0.0660244673399 0.428576514518 -0.0108723854929 -0.0278357546877 0.0 0.0 0.0 0.0
75.59375 0.0675662808337 0.428742487475 -0.0111611308454 -0.0277268363413 0.0 0.0 0.0 0.0
75.609375 0.0691107491356 0.42891540165 -0.0114488921418 -0.0276147940774 0.0 0.0 0.0 0.0
75.625 0.0706590053595 0.429095419256 -0.0117356505001 -0.0274996428522 0.0 0.0 0.0 0.0
75.640625 0.0722111534987 0.429284220507 -0.0120213503006 -0.0273813921277 0.0 0.0 0.0 0.0
75.65625 0.0737656412424 0.429481596888 -0.0123059677677 -0.027260045506 0.0 0.0 0.0 0.0
75.671875 0.0753220226125 0.429687337143 -0.0125894609091 -0.0271356149145 0.0 0.0 0.0 0.0
75.6875 0.0768798888832 0.429900815581 -0.0128717971658 -0.0270081231289 0.0 0.0 0.0 0.0
75.703125 0.078439126778 0.430121794483 -0.0131529395108 -0.0268775737874 0.0 0.0 0.0 0.0
75.71875 0.0799996978938 0.430349828018 -0.0134328465596 -0.0267439804838 0.0 0.0 0.0 0.0
75.734375 0.081561278997 0.430584572011 -0.0137114902455 -0.0266073655372 0.0 0.0 0.0 0.0
75.75 0.0831237920567 0.430825760548 -0.0139888272542 -0.0264677300264 0.0 0.0 0.0 0.0
75.765625 0.0846871836543 0.43107297561 -0.0142648369843 -0.0263250932358 0.0 0.0 0.0 0.0
75.78125 0.0862513497095 0.431326177287 -0.0145394684601 -0.0261794763463 0.0 0.0 0.0 0.0
75.796875 0.0878161930369 0.431584783459 -0.0148126956638 -0.0260308801537 0.0 0.0 0.0 0.0
75.8125 0.08938157072 0.431848614596 -0.0150844847671 -0.0258793403143 0.0 0.0 0.0 0.0
75.828125 0.0909472682263 0.432117457854 -0.0153547929923 -0.0257248605593 0.0 0.0 0.0 0.0
75.84375 0.0925134336306 0.432390850692 -0.0156235943788 -0.0255674580912 0.0 0.0 0.0 0.0
75.859375 0.0940797211572 0.432668582249 -0.015890856464 -0.0254071544349 0.0 0.0 0.0 0.0
75.875 0.0956460887238 0.432950477303 -0.0161565367621 -0.0252439625503 0.0 0.0 0.0 0.0
75.890625 0.0972124107239 0.433236004178 -0.0164206134206 -0.0250778984582 0.0 0.0 0.0 0.0
75.90625 0.0987785873943 0.433525048281 -0.0166830445207 -0.0249089837526 0.0 0.0 0.0 0.0
75.921875 0.100344496659 0.433817149454 -0.0169437885444 -0.0247372408104 0.0 0.0 0.0 0.0
75.9375 0.101910023794 0.434112170388 -0.0172028343353 -0.0245626798477 0.0 0.0 0.0 0.0
75.953125 0.103474993963 0.434409736409 -0.0174601272532 -0.0243853254585 0.0 0.0 0.0 0.0
75.96875 0.105039260191 0.434709616483 -0.0177156570504 -0.0242051959241 0.0 0.0 0.0 0.0
75.984375 0.106602798397 0.435011599771 -0.0179693691227 -0.0240223094464 0.0 0.0 0.0 0.0
76.0 0.108165410063 0.435315035054 -0.018221244117 -0.0238366919518 0.0 0.0 0.0 0.0
76.015625 0.109727054984 0.435619939555 -0.0184712510207 -0.0236483536687 0.0 0.0 0.0 0.0
76.03125 0.111287453953 0.435925882199 -0.0187193575183 -0.0234573229796 0.0 0.0 0.0 0.0
76.046875 0.112846576987 0.436232468601 -0.0189655193934 -0.0232636133747 0.0 0.0 0.0 0.0
76.0625 0.114404399189 0.436539581167 -0.019209713478 -0.0230672646109 0.0 0.0 0.0 0.0
76.078125 0.115960719769 0.436846916863 -0.0194519249194 -0.0228682757062 0.0 0.0 0.0 0.0
76.09375 0.117515429495 0.437153838281 -0.0196920959433 -0.0226666821189 0.0 0.0 0.0 0.0
76.109375 0.119068378929 0.437460281193 -0.0199302142651 -0.0224624988517 0.0 0.0 0.0 0.0
76.125 0.120619673459 0.437765749786 -0.0201662453644 -0.0222557517694 0.0 0.0 0.0 0.0
76.140625 0.12216919459 0.438070089465 -0.0204001492734 -0.0220464727389 0.0 0.0 0.0 0.0
76.15625 0.123717161434 0.438372789886 -0.0206319112241 -0.0218346621708 0.0 0.0 0.0 0.0
76.171875 0.125263722659 0.438674212614 -0.0208614892202 -0.0216203733713 0.0 0.0 0.0 0.0
76.1875 0.12680853929 0.438974548339 -0.0210888631086 -0.0214036127554 0.0 0.0 0.0 0.0
76.203125 0.128351117197 0.439273462295 -0.0213140000543 -0.0211844084289 0.0 0.0 0.0 0.0
76.21875 0.129890953225 0.439570833668 -0.0215368788478 -0.0209627775683 0.0 0.0 0.0 0.0
76.234375 0.131427745498 0.439866169323 -0.0217574561821 -0.0207387605906 0.0 0.0 0.0 0.0
76.25 0.132961242319 0.440159169514 -0.0219757170186 -0.0205123696498 0.0 0.0 0.0 0.0
76.265625 0.13449117873 0.440449299565 -0.0221916190695 -0.0202836462746 0.0 0.0 0.0 0.0
76.28125 0.136017452153 0.440736368857 -0.0224051579897 -0.0200526015724 0.0 0.0 0.0 0.0
76.296875 0.137539684253 0.441020138372 -0.022616277596 -0.0198192647764 0.0 0.0 0.0 0.0
76.3125 0.139057927926 0.441300526809 -0.0228249680761 -0.0195836638798 0.0 0.0 0.0 0.0
76.328125 0.140572080995 0.441576966196 -0.0230312047303 -0.0193458241544 0.0 0.0 0.0 0.0
76.34375 0.142081994194 0.441849165957 -0.0232349580324 -0.0191057773323 0.0 0.0 0.0 0.0
76.359375 0.143587356824 0.442116751629 -0.0234361886865 -0.0188635473474 0.0 0.0 0.0 0.0
76.375 0.145088135378 0.442379417758 -0.0236348882591 -0.0186191628041 0.0 0.0 0.0 0.0
76.390625 0.146583906882 0.442636876567 -0.0238310231971 -0.0183726525176 0.0 0.0 0.0 0.0
76.40625 0.148074679837 0.442888777546 -0.0240245603201 -0.0181240459857 0.0 0.0 0.0 0.0
76.421875 0.149560113178 0.443134910983 -0.024215487549 -0.017873378709 0.0 0.0 0.0 0.0
76.4375 0.151039972442 0.443374813935 -0.0244037820466 -0.0176206678872 0.0 0.0 0.0 0.0
76.453125 0.152514201471 0.443608367531 -0.0245894015614 -0.0173659468187 0.0 0.0 0.0 0.0
76.46875 0.15398248092 0.443835078791 -0.0247723352351 -0.0171092517203 0.0 0.0 0.0 0.0
76.484375 0.155444519194 0.444054743449 -0.0249525608872 -0.0168506008479 0.0 0.0 0.0 0.0
76.5 0.156900182558 0.444267238639 -0.0251300528938 -0.0165900297538 0.0 0.0 0.0 0.0
76.515625 0.158349306269 0.444471984428 -0.0253047862205 -0.0163275744092 0.0 0.0 0.0 0.0
76.53125 0.159791554331 0.444668871121 -0.0254767463039 -0.0160632679371 0.0 0.0 0.0 0.0
76.546875 0.161226772107 0.44485755885 -0.0256458908917 -0.0157971260979 0.0 0.0 0.0 0.0
76.5625 0.16265467361 0.445037725587 -0.0258122284814 -0.0155291964974 0.0 0.0 0.0 0.0
76.578125 0.164075072845 0.445209150149 -0.0259757132253 -0.0152595025334 0.0 0.0 0.0 0.0
76.59375 0.165487758703 0.445371369258 -0.026136330262 -0.014988068174 0.0 0.0 0.0 0.0
76.609375 0.166892465132 0.445524327683 -0.0262940645721 -0.014714944892 0.0 0.0 0.0 0.0
76.625 0.168288799501 0.44566746021 -0.0264488906383 -0.0144401503979 0.0 0.0 0.0 0.0
76.640625 0.169676869691 0.445800821394 -0.0266007927036 -0.0141637264094 0.0 0.0 0.0 0.0
76.65625 0.171056197678 0.445923819164 -0.0267497455587 -0.0138856913553 0.0 0.0 0.0 0.0
76.671875 0.172426537093 0.446036305006 -0.0268957306351 -0.013606094633 0.0 0.0 0.0 0.0
76.6875 0.173787799034 0.446138013087 -0.0270387446407 -0.013324957079 0.0 0.0 0.0 0.0
76.703125 0.175139696803 0.446228527152 -0.0271787523633 -0.0130423195145 0.0 0.0 0.0 0.0
76.71875 0.176482047104 0.446307530244 -0.0273157380985 -0.0127582147795 0.0 0.0 0.0 0.0
76.734375 0.177814583092 0.446375021239 -0.0274496958583 -0.0124726713059 0.0 0.0 0.0 0.0
76.75 0.179137217619 0.446430416823 -0.0275805891144 -0.0121857212802 0.0 0.0 0.0 0.0
76.765625 0.180450007164 0.446473670126 -0.0277084120945 -0.0118974110084 0.0 0.0 0.0 0.0
76.78125 0.18175258274 0.44650470662 -0.0278331477798 -0.0116077641023 0.0 0.0 0.0 0.0
76.796875 0.183044852409 0.446523455186 -0.0279547822348 -0.0113168143708 0.0 0.0 0.0 0.0
76.8125 0.18432626783 0.446529918583 -0.0280733019013 -0.0110245957693 0.0 0.0 0.0 0.0
76.828125 0.185596446366 0.446523834017 -0.0281886755048 -0.0107311526941 0.0 0.0 0.0 0.0
76.84375 0.186855332916 0.446505061963 -0.0283009051238 -0.0104364996249 0.0 0.0 0.0 0.0
76.859375 0.18810277154 0.446473389431 -0.0284099824165 -0.0101406981795 0.0 0.0 0.0 0.0
76.875 0.189338016915 0.446428043539 -0.0285158698362 -0.00984375682491 0.0 0.0 0.0 0.0
76.890625 0.190560989083 0.446369010672 -0.0286185692409 -0.0095457324855 0.0 0.0 0.0 0.0
76.90625 0.191771196439 0.446296135752 -0.0287180533424 -0.00924664650474 0.0 0.0 0.0 0.0
76.921875 0.192968341296 0.446209066722 -0.0288143278714 -0.00894654815525 0.0 0.0 0.0 0.0
76.9375 0.194152090002 0.446107700505 -0.0289073723982 -0.00864546123665 0.0 0.0 0.0 0.0
76.953125 0.195322061788 0.445991344342 -0.0289971683334 -0.00834342735492 0.0 0.0 0.0 0.0
76.96875 0.196478166812 0.44586046223 -0.0290837190405 -0.00804048612461 0.0 0.0 0.0 0.0
76.984375 0.197619892351 0.445714392692 -0.0291669900113 -0.00773666652441 0.0 0.0 0.0 0.0
77.0 0.198746890152 0.445553017122 -0.0292469937959 -0.00743200232087 0.0 0.0 0.0 0.0
77.015625 0.199859022986 0.445376213175 -0.0293237117926 -0.00712654364514 0.0 0.0 0.0 0.0
77.03125 0.200955844132 0.445183646391 -0.0293971300276 -0.00682032547651 0.0 0.0 0.0 0.0
77.046875 0.202037030935 0.444975105203 -0.0294672383508 -0.00651336743387 0.0 0.0 0.0 0.0
77.0625 0.203102294 0.444750453727 -0.0295340473019 -0.00620571837319 0.0 0.0 0.0 0.0
77.078125 0.204151184473 0.444509366016 -0.0295975228437 -0.00589741740831 0.0 0.0 0.0 0.0
77.09375 0.205183722684 0.444252071715 -0.0296576670074 -0.0055884951982 0.0 0.0 0.0 0.0
77.109375 0.206199142264 0.443977716362 -0.0297144805689 -0.00527899003061 0.0 0.0 0.0 0.0
77.125 0.207197430635 0.443686461141 -0.0297679451667 -0.0049689366974 0.0 0.0 0.0 0.0
77.140625 0.208178091606 0.44337804328 -0.0298180546266 -0.00465838056317 0.0 0.0 0.0 0.0
77.15625 0.209140861772 0.44305239175 -0.0298648046945 -0.00434735912875 0.0 0.0 0.0 0.0
77.171875 0.210085518128 0.442709062487 -0.0299081926217 -0.00403590195863 0.0 0.0 0.0 0.0
77.1875 0.211011527651 0.44234817822 -0.0299482016152 -0.00372404493783 0.0 0.0 0.0 0.0
77.203125 0.211918738689 0.441969446749 -0.0299848472604 -0.00341183625429 0.0 0.0 0.0 0.0
77.21875 0.212806565989 0.441572428384 -0.0300181023381 -0.00309929458167 0.0 0.0 0.0 0.0
77.234375 0.21367503407 0.441157499445 -0.0300479817616 -0.00278648392901 0.0 0.0 0.0 0.0
77.25 0.214523608225 0.440723875456 -0.0300744722305 -0.00247342482006 0.0 0.0 0.0 0.0
77.265625 0.215352036191 0.440271805759 -0.030097572236 -0.00216015524939 0.0 0.0 0.0 0.0
77.28125 0.216160151029 0.439801113452 -0.0301172736029 -0.00184672082701 0.0 0.0 0.0 0.0
77.296875 0.216947198697 0.439311314965 -0.0301335825563 -0.0015331600962 0.0 0.0 0.0 0.0
77.3125 0.217713254329 0.43880272347 -0.0301464994814 -0.00121950301234 0.0 0.0 0.0 0.0
77.328125 0.218458037467 0.438274781201 -0.0301560116224 -0.000905779099825 0.0 0.0 0.0 0.0
77.34375 0.219181052017 0.437727523136 -0.030162125714 -0.000592042893313 0.0 0.0 0.0 0.0
77.359375 0.219882123938 0.437161040003 -0.0301648430573 -0.000278340542091 0.0 0.0 0.0 0.0
77.375 0.220560948333 0.436575012135 -0.0301641524327 3.53219955174e-05 0.0 0.0 0.0 0.0
77.390625 0.221216992953 0.435969390993 -0.0301600754979 0.00034888239764 0.0 0.0 0.0 0.0
77.40625 0.221850270077 0.435344189486 -0.0301525882864 0.00066231032987 0.0 0.0 0.0 0.0
77.421875 0.222460018742 0.434699187435 -0.0301417135611 0.000975567869886 0.0 0.0 0.0 0.0
77.4375 0.223046140875 0.434034315682 -0.0301274414208 0.00128861656095 0.0 0.0 0.0 0.0
77.453125 0.223608229531 0.433349608932 -0.0301097752289 0.00160142617624 0.0 0.0 0.0 0.0
77.46875 0.224145999433 0.432644624519 -0.0300887260868 0.00191395092728 0.0 0.0 0.0 0.0
77.484375 0.224659069651 0.431920000372 -0.0300642854539 0.00222615192922 0.0 0.0 0.0 0.0
77.5 0.225146799447 0.431174740214 -0.0300364703065 0.00253800805269 0.0 0.0 0.0 0.0
77.515625 0.22560941138 0.430409363295 -0.0300052666814 0.00284947162874 0.0 0.0 0.0 0.0
77.53125 0.226046397843 0.429623541004 -0.0299706943805 0.00316049775029 0.0 0.0 0.0 0.0
77.546875 0.226457336046 0.428817240527 -0.0299327457782 0.00347105507791 0.0 0.0 0.0 0.0
77.5625 0.226842246465 0.427990293111 -0.0298914331204 0.00378111427089 0.0 0.0 0.0 0.0
77.578125 0.227200309233 0.427142591287 -0.0298467588898 0.00409062066776 0.0 0.0 0.0 0.0
77.59375 0.22753142421 0.426274137171 -0.0297987339384 0.00439956114714 0.0 0.0 0.0 0.0
77.609375 0.227835397537 0.425384749237 -0.0297473642426 0.004707865285 0.0 0.0 0.0 0.0
77.625 0.228111739825 0.424474502882 -0.02969264689 0.00501552598271 0.0 0.0 0.0 0.0
77.640625 0.228360227889 0.423543280074 -0.0296346010867 0.00532248284773 0.0 0.0 0.0 0.0
77.65625 0.228580295427 0.422591126978 -0.0295732319194 0.00562872208631 0.0 0.0 0.0 0.0
77.671875 0.228771798658 0.421618051548 -0.0295085534162 0.0059341826813 0.0 0.0 0.0 0.0
77.6875 0.228934551285 0.420623973083 -0.0294405679041 0.00623883394791 0.0 0.0 0.0 0.0
77.703125 0.229067795053 0.419608683469 -0.0293692907791 0.00654264787901 0.0 0.0 0.0 0.0
77.71875 0.229171500454 0.41857236691 -0.0292947227954 0.00684560159547 0.0 0.0 0.0 0.0
77.734375 0.229245457848 0.417514865896 -0.0292168888137 0.00714762838443 0.0 0.0 0.0 0.0
77.75 0.229289110567 0.416436432806 -0.0291357822618 0.00744871169497 0.0 0.0 0.0 0.0
77.765625 0.229302113736 0.415336768319 -0.0290514299522 0.0077488102017 0.0 0.0 0.0 0.0
77.78125 0.229284308407 0.414215898975 -0.028963838072 0.00804788576968 0.0 0.0 0.0 0.0
77.796875 0.229235410423 0.413073871165 -0.028873025989 0.00834590383248 0.0 0.0 0.0 0.0
77.8125 0.229155088682 0.411910501812 -0.0287789921526 0.00864283222787 0.0 0.0 0.0 0.0
77.828125 0.229042993219 0.41072607494 -0.0286817565595 0.00893863659554 0.0 0.0 0.0 0.0
77.84375 0.228898855184 0.409520485549 -0.0285813395425 0.00923328301376 0.0 0.0 0.0 0.0
77.859375 0.2287223214 0.408293717984 -0.0284777517926 0.00952672623231 0.0 0.0 0.0 0.0
77.875 0.228513243881 0.407045595736 -0.0283709969721 0.00981894371054 0.0 0.0 0.0 0.0
77.890625 0.22827120402 0.405776459333 -0.0282611053256 0.0101098966968 0.0 0.0 0.0 0.0
77.90625 0.227996171604 0.404486178338 -0.0281480773625 0.0103995531203 0.0 0.0 0.0 0.0
77.921875 0.227687714055 0.403174773959 -0.0280319408975 0.0106878651256 0.0 0.0 0.0 0.0
77.9375 0.22734557204 0.401842300664 -0.027912713257 0.0109748325786 0.0 0.0 0.0 0.0
77.953125 0.226969460341 0.400488869767 -0.0277903951121 0.0112603888994 0.0 0.0 0.0 0.0
77.96875 0.2265592103 0.399114278735 -0.0276650191089 0.0115445143245 0.0 0.0 0.0 0.0
77.984375 0.226114601232 0.397718832483 -0.0275365905744 0.0118271696055 0.0 0.0 0.0 0.0
78.0 0.225635268012 0.39630255454 -0.0274051302881 0.0121083304928 0.0 0.0 0.0 0.0
78.015625 0.225121139007 0.394865345498 -0.0272706536323 0.0123879531043 0.0 0.0 0.0 0.0
78.03125 0.2245719601 0.393407740189 -0.0271331879291 0.0126660164795 0.0 0.0 0.0 0.0
78.046875 0.223987415751 0.391929403992 -0.0269927341596 0.0129424788342 0.0 0.0 0.0 0.0
78.0625 0.223367399365 0.390430586219 -0.0268493423772 0.01321730391 0.0 0.0 0.0 0.0
78.078125 0.222711492292 0.388911442782 -0.0267030018153 0.013490461709 0.0 0.0 0.0 0.0
78.09375 0.222019568294 0.387372006213 -0.0265537465026 0.013761935296 0.0 0.0 0.0 0.0
78.109375 0.221291386986 0.385812558454 -0.0264015923878 0.014031672036 0.0 0.0 0.0 0.0
78.125 0.220526770867 0.384233217944 -0.0262465644574 0.0142996599226 0.0 0.0 0.0 0.0
78.140625 0.219725394097 0.382633812015 -0.0260886912853 0.0145658531563 0.0 0.0 0.0 0.0
78.15625 0.218886991622 0.3810147107 -0.0259279694972 0.0148302243854 0.0 0.0 0.0 0.0
78.171875 0.218011514736 0.379376033457 -0.0257644572864 0.0150927445564 0.0 0.0 0.0 0.0
78.1875 0.217098579085 0.377717748315 -0.0255981404778 0.0153533799397 0.0 0.0 0.0 0.0
78.203125 0.216148253009 0.376040105567 -0.0254290640015 0.0156121128933 0.0 0.0 0.0 0.0
78.21875 0.215160063109 0.374343186128 -0.0252572434979 0.0158688993217 0.0 0.0 0.0 0.0
78.234375 0.214133955438 0.37262717659 -0.0250827077624 0.0161237124455 0.0 0.0 0.0 0.0
78.25 0.21306963181 0.370892255542 -0.0249054661203 0.0163765320682 0.0 0.0 0.0 0.0
78.265625 0.211967236802 0.369138526014 -0.0247255717207 0.0166273193601 0.0 0.0 0.0 0.0
78.28125 0.210826417527 0.367366095765 -0.024543009185 0.0168760568312 0.0 0.0 0.0 0.0
78.296875 0.209647051172 0.36557530678 -0.0243578415396 0.01712269357 0.0 0.0 0.0 0.0
78.3125 0.208429076317 0.363766106832 -0.0241700707899 0.0173672335315 0.0 0.0 0.0 0.0
78.328125 0.207172437372 0.361938856347 -0.023979730217 0.0176096250118 0.0 0.0 0.0 0.0
78.34375 0.205876542022 0.360093368415 -0.0237868510228 0.0178498541052 0.0 0.0 0.0 0.0
78.359375 0.204541771617 0.358230207474 -0.0235914434081 0.0180878915397 0.0 0.0 0.0 0.0
78.375 0.20316784123 0.356349386956 -0.0233935529118 0.0183236948776 0.0 0.0 0.0 0.0
78.390625 0.201754580305 0.354451057593 -0.023193186271 0.0185572620005 0.0 0.0 0.0 0.0
78.40625 0.200302035312 0.35253546945 -0.0229903846081 0.0187885576404 0.0 0.0 0.0 0.0
78.421875 0.198810160498 0.350602760029 -0.022785169464 0.0190175615083 0.0 0.0 0.0 0.0
78.4375 0.197278605574 0.348653331985 -0.0225775677258 0.0192442371642 0.0 0.0 0.0 0.0
78.453125 0.195707519567 0.346687093247 -0.0223676165492 0.0194685672971 0.0 0.0 0.0 0.0
78.46875 0.194096724579 0.344704281782 -0.022155328302 0.0196905239221 0.0 0.0 0.0 0.0
